;$FILEVERSION=1.1
;$STARTTIME=44573.4369244676
;
;   Start time: 1/12/2022 10:29:10.274.0
;   Generated by PCAN-View v4.3.0.596
;
;   Message Number
;   |         Time Offset (ms)
;   |         |        Type
;   |         |        |        ID (hex)
;   |         |        |        |     Data Length
;   |         |        |        |     |   Data Bytes (hex) ...
;   |         |        |        |     |   |
;---+--   ----+----  --+--  ----+---  +  -+ -- -- -- -- -- -- --
     1)      5913.1  Rx         0615  8  02 3E 00 B4 28 00 00 00        <-- Tester present
     2)      5957.3  Rx         0616  8  02 7E 00 55 55 55 55 55 
     3)      7960.7  Rx         0615  8  02 10 02 00 00 00 00 00        <-- Request diagnostic session control (programming session)
     4)      8067.7  Rx         0616  8  03 7F 10 78 55 55 55 55        <-- Response is pending
     5)      8148.5  Rx         0616  8  06 50 02 58 32 13 88 55 
     6)      8565.3  Rx         0615  8  03 27 01 02 C5 04 00 00        <-- Request security access (request seed)
     7)      8575.0  Rx         0616  8  10 0A 67 01 40 02 00 01 
     8)      8576.9  Rx         0615  8  30 00 00 03 00 00 00 00 
     9)      8579.3  Rx         0616  8  21 B6 49 DE 8C 55 55 55 
    10)      8582.6  Rx         0615  8  06 27 02 7D BE 8B 18 00        <-- Request security access (send key)
    11)      8592.4  Rx         0616  8  02 67 02 55 55 55 55 55 
    12)      8593.7  Rx         0615  8  10 36 2E F1 5A 16 01 0C        <-- Write Fingerprint
    13)      8597.7  Rx         0616  8  30 00 00 55 55 55 55 55 
    14)      8598.4  Rx         0615  8  21 55 44 53 46 4C 41 53 
    15)      8598.7  Rx         0615  8  22 48 45 52 33 2E 30 2E 
    16)      8599.1  Rx         0615  8  23 31 58 58 58 58 58 58 
    17)      8599.4  Rx         0615  8  24 58 58 58 58 58 58 58 
    18)      8599.8  Rx         0615  8  25 58 58 58 58 58 58 58 
    19)      8600.1  Rx         0615  8  26 58 58 58 58 58 58 58 
    20)      8600.4  Rx         0615  8  27 58 58 58 58 58 58 58 
    21)      8612.4  Rx         0616  8  03 6E F1 5A 55 55 55 55 
    22)      8612.8  Rx         0615  8  05 31 01 FF 00 02 00 00        <-- Start routine (Erase memory)
    23)      8666.0  Rx         0616  8  03 7F 31 78 55 55 55 55 
    24)      8758.2  Rx         0616  8  05 71 01 FF 00 00 55 55 
    25)      8807.4  Rx         0615  8  10 0B 34 00 44 00 01 40        <-- Request download
    26)      8810.2  Rx         0616  8  30 00 00 55 55 55 55 55 
    27)      8811.5  Rx         0615  8  21 00 00 00 00 80 00 00 
    28)      8813.7  Rx         0616  8  06 74 40 00 00 04 02 55 
    29)      8815.0  Rx         0615  8  10 82 36 01 00 00 00 18        <-- Request transfer data (block 1)
    30)      8817.2  Rx         0616  8  30 00 00 55 55 55 55 55 
    31)      8818.4  Rx         0615  8  21 00 00 00 05 18 49 EE 
    32)      8818.7  Rx         0615  8  22 2E B7 9F 6E 64 00 00 
    33)      8819.0  Rx         0615  8  23 00 0A 00 01 41 00 00 
    34)      8819.4  Rx         0615  8  24 00 00 20 00 00 00 00 
    35)      8819.7  Rx         0615  8  25 C6 02 63 D8 E6 CE FC 
    36)      8820.0  Rx         0615  8  26 75 00 00 00 0A 00 01 
    37)      8820.4  Rx         0615  8  27 41 20 00 04 B6 40 00 
    38)      8820.7  Rx         0615  8  28 00 00 00 DA EB FC F0 
    39)      8821.0  Rx         0615  8  29 FC B8 25 48 00 00 00 
    40)      8821.4  Rx         0615  8  2A 0A 00 05 F7 60 00 00 
    41)      8821.7  Rx         0615  8  2B 2A 60 00 00 00 00 3A 
    42)      8822.1  Rx         0615  8  2C 24 B3 D5 A8 46 42 27 
    43)      8822.4  Rx         0615  8  2D 00 00 00 0A 00 06 21 
    44)      8822.7  Rx         0615  8  2E C0 00 00 0B 60 00 00 
    45)      8823.1  Rx         0615  8  2F 00 00 78 3A 57 04 39 
    46)      8823.4  Rx         0615  8  20 12 8E A8 00 00 00 0A 
    47)      8823.7  Rx         0615  8  21 00 06 2D 20 00 00 00 
    48)      8824.1  Rx         0615  8  22 20 00 00 00 00 00 00 
    49)      8838.6  Rx         0616  8  02 76 01 55 55 55 55 55 
    50)      8839.8  Rx         0615  8  01 37 00 00 00 00 00 00 
    51)      8885.6  Rx         0616  8  01 77 55 55 55 55 55 55 
    52)      8886.9  Rx         0615  8  10 0B 34 00 44 00 01 41 
    53)      8889.1  Rx         0616  8  30 00 00 55 55 55 55 55 
    54)      8890.2  Rx         0615  8  21 00 00 04 EC 40 00 00 
    55)      8892.6  Rx         0616  8  06 74 40 00 00 04 02 55 
    56)      9004.4  Rx         0615  8  14 02 36 01 EA 01 27 2E 
    57)      9006.7  Rx         0616  8  30 00 00 55 55 55 55 55 
    58)      9015.5  Rx         0615  8  21 EA 01 13 B1 EA 01 13 
    59)      9015.9  Rx         0615  8  22 B4 EA 01 13 B7 EA 01 
    60)      9016.2  Rx         0615  8  23 13 BB EA 01 2D 8A EA 
    61)      9016.5  Rx         0615  8  24 01 13 C3 E5 1F F1 B0 
    62)      9016.9  Rx         0615  8  25 E5 9F C6 C4 E5 DC 00 
    63)      9017.2  Rx         0615  8  26 00 E3 50 00 01 15 9F 
    64)      9017.5  Rx         0615  8  27 16 BC 13 A0 00 00 15 
    65)      9017.9  Rx         0615  8  28 81 00 00 E3 A0 00 01 
    66)      9018.2  Rx         0615  8  29 E5 CC 00 00 E1 2F FF 
    67)      9018.6  Rx         0615  8  2A 1E E5 9F C6 A8 E5 DC 
    68)      9018.9  Rx         0615  8  2B 00 00 E3 50 00 01 15 
    69)      9019.2  Rx         0615  8  2C 9F 16 A0 13 A0 00 00 
    70)      9019.6  Rx         0615  8  2D 15 81 00 00 E3 A0 00 
    71)      9019.9  Rx         0615  8  2E 01 E5 CC 00 00 E1 2F 
    72)      9020.2  Rx         0615  8  2F FF 1E E5 9F C6 8C E5 
    73)      9020.6  Rx         0615  8  20 DC 00 00 E3 50 00 01 
    74)      9020.9  Rx         0615  8  21 15 9F 16 84 13 A0 00 
    75)      9021.2  Rx         0615  8  22 00 15 81 00 00 E3 A0 
    76)      9021.6  Rx         0615  8  23 00 01 E5 CC 00 00 E1 
    77)      9021.9  Rx         0615  8  24 2F FF 1E E5 9F C6 70 
    78)      9022.2  Rx         0615  8  25 E5 DC 00 00 E3 50 00 
    79)      9022.6  Rx         0615  8  26 01 15 9F 16 68 13 A0 
    80)      9022.9  Rx         0615  8  27 00 00 15 81 00 00 E3 
    81)      9023.3  Rx         0615  8  28 A0 00 01 E5 CC 00 00 
    82)      9023.6  Rx         0615  8  29 E1 2F FF 1E E5 9F 06 
    83)      9023.9  Rx         0615  8  2A 34 E3 A0 C0 00 E5 C0 
    84)      9024.3  Rx         0615  8  2B C0 00 E1 2F FF 1E E5 
    85)      9024.6  Rx         0615  8  2C 9F 06 2C E3 A0 C0 00 
    86)      9024.9  Rx         0615  8  2D E5 C0 C0 00 E1 2F FF 
    87)      9025.3  Rx         0615  8  2E 1E E5 9F 06 24 E3 A0 
    88)      9025.6  Rx         0615  8  2F C0 00 E5 C0 C0 00 E1 
    89)      9025.9  Rx         0615  8  20 2F FF 1E E5 9F 06 1C 
    90)      9026.3  Rx         0615  8  21 E3 A0 C0 00 E5 C0 C0 
    91)      9026.6  Rx         0615  8  22 00 E1 2F FF 1E E9 2D 
    92)      9027.0  Rx         0615  8  23 40 10 E2 4D D0 18 E3 
    93)      9027.3  Rx         0615  8  24 00 C4 12 E3 A0 40 00 
    94)      9027.6  Rx         0615  8  25 E1 5C 00 00 E5 CD 40 
    95)      9028.0  Rx         0615  8  26 0C BA 00 00 19 E1 5C 
    96)      9028.3  Rx         0615  8  27 00 00 0A 00 00 48 E3 
    97)      9028.6  Rx         0615  8  28 50 0F 85 E3 00 C2 15 
    98)      9029.0  Rx         0615  8  29 CA 00 00 0A E3 50 0F 
    99)      9029.3  Rx         0615  8  2A 85 0A 00 00 52 E2 50 
   100)      9029.6  Rx         0615  8  2B CF 5B 0A 00 00 5F E2 
   101)      9030.0  Rx         0615  8  2C 5C C0 A5 0A 00 00 5A 
   102)      9030.3  Rx         0615  8  2D E2 5C C0 01 0A 00 00 
   103)      9030.7  Rx         0615  8  2E 54 E2 5C C0 01 0A 00 
   104)      9031.0  Rx         0615  8  2F 00 4E EA 00 00 6C E0 
   105)      9031.3  Rx         0615  8  20 50 00 0C 0A 00 00 45 
   106)      9031.7  Rx         0615  8  21 E2 50 00 01 0A 00 00 
   107)      9032.0  Rx         0615  8  22 40 E2 50 00 01 E3 00 
   108)      9032.3  Rx         0615  8  23 C1 FA 0A 00 00 39 E0 
   109)      9032.7  Rx         0615  8  24 50 C0 0C 0A 00 00 33 
   110)      9033.0  Rx         0615  8  25 EA 00 00 62 E3 00 C4 
   111)      9033.3  Rx         0615  8  26 17 E1 5C 00 00 B3 00 
   112)      9033.7  Rx         0615  8  27 C6 11 BA 00 00 0B E1 
   113)      9034.0  Rx         0615  8  28 5C 00 00 13 00 C4 13 
   114)      9034.3  Rx         0615  8  29 0A 00 00 1C E0 50 00 
   115)      9034.7  Rx         0615  8  2A 0C 0A 00 00 25 E2 50 
   116)      9035.0  Rx         0615  8  2B 00 01 0A 00 00 20 E2 
   117)      9035.3  Rx         0615  8  2C 50 00 01 0A 00 00 1B 
   118)      9035.7  Rx         0615  8  2D E2 50 C0 01 0A 00 00 
   119)      9036.0  Rx         0615  8  2E 16 EA 00 00 52 E0 50 
   120)      9036.4  Rx         0615  8  2F 00 0C 0A 00 00 0E E2 
   121)      9036.7  Rx         0615  8  20 50 00 01 0A 00 00 09 
   122)      9037.0  Rx         0615  8  21 E2 50 00 04 0A 00 00 
   123)      9037.4  Rx         0615  8  22 04 E2 50 C0 01 1A 00 
   124)      9037.7  Rx         0615  8  23 00 4A E5 9F 15 30 E3 
   125)      9038.0  Rx         0615  8  24 00 C6 17 EA 00 00 1D 
   126)      9038.4  Rx         0615  8  25 E5 9F 15 28 E3 00 C6 
   127)      9038.7  Rx         0615  8  26 16 EA 00 00 1A E5 9F 
   128)      9039.0  Rx         0615  8  27 15 20 E3 00 C6 12 EA 
   129)      9039.4  Rx         0615  8  28 00 00 17 E5 9F 15 18 
   130)      9039.7  Rx         0615  8  29 E3 A0 00 06 EA 00 00 
   131)      9040.0  Rx         0615  8  2A 2D E5 9F 15 10 EA 00 
   132)      9040.4  Rx         0615  8  2B 00 2A E5 9F 15 0C E3 
   133)      9040.7  Rx         0615  8  2C 00 C4 16 EA 00 00 0F 
   134)      9041.0  Rx         0615  8  2D E5 9F 15 04 E3 00 C4 
   135)      9041.4  Rx         0615  8  2E 15 EA 00 00 0C E5 9F 
   136)      9041.7  Rx         0615  8  2F 14 FC E3 00 C4 14 EA 
   137)      9042.0  Rx         0615  8  20 00 00 09 E5 9F 14 F4 
   138)      9042.4  Rx         0615  8  21 EA 00 00 1F E5 9F 14 
   139)      9042.7  Rx         0615  8  22 F0 EA 00 00 05 E3 00 
   140)      9043.0  Rx         0615  8  23 C4 11 E3 A0 00 04 E5 
   141)      9043.4  Rx         0615  8  24 9F 14 E4 EA 00 00 1A 
   142)      9043.7  Rx         0615  8  25 E5 9F 14 E0 E3 00 C2 
   143)      9044.0  Rx         0615  8  26 17 E3 A0 00 08 EA 00 
   144)      9044.4  Rx         0615  8  27 00 16 E5 9F 14 D4 E3 
   145)      9044.7  Rx         0615  8  28 00 C2 16 EA 00 00 12 
   146)      9045.1  Rx         0615  8  29 E5 9F 14 CC EA FF FF 
   147)      9045.4  Rx         0615  8  2A F8 E3 A0 00 03 E3 A0 
   148)      9045.7  Rx         0615  8  2B CF 85 E5 9F 14 C0 EA 
   149)      9046.1  Rx         0615  8  2C 00 00 0D E3 00 C2 13 
   150)      9046.4  Rx         0615  8  2D E3 A0 00 05 E5 9F 14 
   151)      9046.7  Rx         0615  8  2E B4 EA 00 00 09 E3 00 
   152)      9047.1  Rx         0615  8  2F C2 12 E3 A0 00 07 E5 
   153)      9047.4  Rx         0615  8  20 9F 14 A8 EA 00 00 05 
   154)      9047.7  Rx         0615  8  21 E5 9F 14 A4 E3 00 C2 
   155)      9048.1  Rx         0615  8  22 11 EA FF FF E9 E5 9F 
   156)      9048.4  Rx         0615  8  23 14 9C E3 A0 CF 5B E3 
   157)      9048.7  Rx         0615  8  24 A0 00 02 E5 8D C0 00 
   158)      9049.1  Rx         0615  8  25 E5 CD 00 0C E5 DD 20 
   159)      9049.4  Rx         0615  8  26 0C E2 8D 00 04 FA 01 
   160)      9049.7  Rx         0615  8  27 27 57 E1 A0 00 04 E1 
   161)      9050.1  Rx         0615  8  28 A0 10 0D EB 01 0F C4 
   162)      9050.4  Rx         0615  8  29 E3 50 00 00 01 A0 00 
   163)      9050.7  Rx         0615  8  2A 04 0A 00 00 0B E2 50 
   164)      9051.1  Rx         0615  8  2B 00 01 0A 00 00 05 E2 
   165)      9051.4  Rx         0615  8  2C 50 00 01 0A 00 00 05 
   166)      9051.7  Rx         0615  8  2D E2 50 C0 01 0A 00 00 
   167)      9052.1  Rx         0615  8  2E 01 E3 E0 00 00 EA 00 
   168)      9052.4  Rx         0615  8  2F 00 03 E3 E0 00 02 EA 
   169)      9052.8  Rx         0615  8  20 00 00 01 E3 E0 00 01 
   170)      9053.1  Rx         0615  8  21 EA FF FF FF E2 8D D0 
   171)      9053.4  Rx         0615  8  22 18 E8 BD 80 10 E3 E0 
   172)      9053.8  Rx         0615  8  23 00 00 E1 2F FF 1E E3 
   173)      9054.1  Rx         0615  8  24 00 02 12 EA FF FF 6F 
   174)      9054.4  Rx         0615  8  25 E9 2D 40 08 E3 A0 0F 
   175)      9054.8  Rx         0615  8  26 5B EB FF FF 6C E3 00 
   176)      9055.1  Rx         0615  8  27 02 13 EB FF FF 6A E3 
   177)      9055.4  Rx         0615  8  28 00 04 11 EB FF FF 68 
   178)      9055.8  Rx         0615  8  29 E3 00 04 13 EB FF FF 
   179)      9056.1  Rx         0615  8  2A 66 E3 00 04 15 EB FF 
   180)      9056.5  Rx         0615  8  2B FF 64 E3 00 04 17 EB 
   181)      9056.8  Rx         0615  8  2C FF FF 62 E8 BD 80 08 
   182)      9057.1  Rx         0615  8  2D E9 2D 40 08 E3 00 02 
   183)      9057.5  Rx         0615  8  2E 11 EB FF FF 5E E3 00 
   184)      9057.8  Rx         0615  8  2F 04 16 EB FF FF 5C E8 
   185)      9058.1  Rx         0615  8  20 BD 80 08 E3 00 06 17 
   186)      9058.5  Rx         0615  8  21 EA FF FF 59 E5 9F 23 
   187)      9058.8  Rx         0615  8  22 C8 E3 00 C4 08 E1 5C 
   188)      9059.1  Rx         0615  8  23 00 00 E9 2D 40 38 E1 
   189)      9059.5  Rx         0615  8  24 A0 40 01 E3 E0 50 00 
   190)      9059.8  Rx         0615  8  25 E5 92 30 00 BA 00 00 
   191)      9060.2  Rx         0615  8  26 3B E1 5C 00 00 E3 00 
   192)      9060.5  Rx         0615  8  27 C2 0A 0A 00 00 9F E1 
   193)      9060.8  Rx         0615  8  28 5C 00 00 BA 00 00 1C 
   194)      9061.2  Rx         0615  8  29 E1 5C 00 00 E3 00 C1 
   195)      9061.5  Rx         0615  8  2A 0B 0A 00 00 AF E1 5C 
   196)      9061.8  Rx         0615  8  2B 00 00 B3 00 C1 0D BA 
   197)      9062.2  Rx         0615  8  2C 00 00 0C E1 5C 00 00 
   198)      9062.5  Rx         0615  8  2D 05 9F CA 38 0A 00 00 
   199)      9062.8  Rx         0615  8  2E B3 E2 50 C0 0B 05 9F 
   200)      9063.2  Rx         0615  8  2F CA 30 0A 00 00 B9 E2 
   201)      9063.5  Rx         0615  8  20 5C C0 01 0A 00 00 B5 
   202)      9063.9  Rx         0615  8  21 E2 5C C0 FC 0A 00 00 
   203)      9064.2  Rx         0615  8  22 B1 E2 5C C0 02 00 00 
   204)      9168.2  Rx         0616  8  02 76 01 55 55 55 55 55        --> Reply to Transfer data
   205)      9168.6  Rx         0615  8  14 02 36 02 0A 00 00 AC        <-- Request Transfer data (block 2)
   206)      9172.5  Rx         0616  8  30 00 00 55 55 55 55 55 
   207)      9173.7  Rx         0615  8  21 EA 00 00 5B E0 50 C0 
   208)      9174.0  Rx         0615  8  22 0C 0A 00 00 A5 E2 5C 
   209)      9174.3  Rx         0615  8  23 C0 02 0A 00 00 A1 E2 
   210)      9174.7  Rx         0615  8  24 5C C0 60 05 9F C9 F0 
   211)      9175.0  Rx         0615  8  25 0A 00 00 9C E2 5C C0 
   212)      9175.3  Rx         0615  8  26 9A 0A 00 00 98 EA 00 
   213)      9175.7  Rx         0615  8  27 00 51 E3 50 0F A2 E3 
   214)      9176.0  Rx         0615  8  28 00 C2 89 CA 00 00 0C 
   215)      9176.3  Rx         0615  8  29 E3 50 0F A2 E3 00 C2 
   216)      9176.7  Rx         0615  8  2A 0E 0A 00 00 85 E0 50 
   217)      9177.0  Rx         0615  8  2B C0 0C 05 9F C3 58 0A 
   218)      9177.4  Rx         0615  8  2C 00 00 8A E2 5C C0 52 
   219)      9177.7  Rx         0615  8  2D 0A 00 00 86 E2 5C C0 
   220)      9178.0  Rx         0615  8  2E 01 0A 00 00 82 E2 5C 
   221)      9178.4  Rx         0615  8  2F C0 13 0A 00 00 7E EA 
   222)      9178.7  Rx         0615  8  20 00 00 41 E0 50 C0 0C 
   223)      9179.0  Rx         0615  8  21 05 9F CF F0 0A 00 00 
   224)      9179.4  Rx         0615  8  22 76 E2 5C C0 1F 0A 00 
   225)      9179.7  Rx         0615  8  23 00 72 E2 5C C0 20 0A 
   226)      9180.0  Rx         0615  8  24 00 00 6E E2 5C C0 B8 
   227)      9180.4  Rx         0615  8  25 0A 00 00 6A EA 00 00 
   228)      9180.7  Rx         0615  8  26 37 E3 00 C4 F9 E1 5C 
   229)      9181.0  Rx         0615  8  27 00 00 B3 00 C6 61 BA 
   230)      9181.4  Rx         0615  8  28 00 00 1A E1 5C 00 00 
   231)      9181.7  Rx         0615  8  29 E3 00 C4 0E 0A 00 00 
   232)      9182.0  Rx         0615  8  2A 4B E1 5C 00 00 B3 00 
   233)      9182.4  Rx         0615  8  2B C4 0F BA 00 00 0B E1 
   234)      9182.7  Rx         0615  8  2C 5C 00 00 E3 00 C4 09 
   235)      9183.1  Rx         0615  8  2D 0A 00 00 4F E0 50 C0 
   236)      9183.4  Rx         0615  8  2E 0C 0A 00 00 55 E2 5C 
   237)      9183.7  Rx         0615  8  2F C0 02 0A 00 00 51 E2 
   238)      9184.1  Rx         0615  8  20 5C C0 01 0A 00 00 4D 
   239)      9184.4  Rx         0615  8  21 E2 5C C0 01 0A 00 00 
   240)      9184.7  Rx         0615  8  22 49 EA 00 00 21 E0 50 
   241)      9185.1  Rx         0615  8  23 C0 0C 0A 00 00 42 E2 
   242)      9185.4  Rx         0615  8  24 5C C0 31 0A 00 00 3E 
   243)      9185.7  Rx         0615  8  25 E2 5C C0 08 0A 00 00 
   244)      9186.1  Rx         0615  8  26 3A E2 5C C0 A3 0A 00 
   245)      9186.4  Rx         0615  8  27 00 36 EA 00 00 18 E1 
   246)      9186.7  Rx         0615  8  28 5C 00 00 B3 00 C6 89 
   247)      9187.1  Rx         0615  8  29 BA 00 00 0C E1 5C 00 
   248)      9187.4  Rx         0615  8  2A 00 E3 00 C5 01 0A 00 
   249)      9187.7  Rx         0615  8  2B 00 23 E0 50 C0 0C 0A 
   250)      9188.1  Rx         0615  8  2C 00 00 29 E2 5C C0 11 
   251)      9188.4  Rx         0615  8  2D 05 9F C2 30 0A 00 00 
   252)      9188.7  Rx         0615  8  2E 24 E2 5C C0 1E 0A 00 
   253)      9189.1  Rx         0615  8  2F 00 20 E2 5C C0 E5 0A 
   254)      9189.4  Rx         0615  8  20 00 00 1C EA 00 00 08 
   255)      9189.7  Rx         0615  8  21 E0 50 C0 0C 0A 00 00 
   256)      9190.1  Rx         0615  8  22 15 E2 5C C0 20 05 9F 
   257)      9190.4  Rx         0615  8  23 CE EC 0A 00 00 09 E2 
   258)      9190.7  Rx         0615  8  24 5C C0 20 0A 00 00 05 
   259)      9191.1  Rx         0615  8  25 E2 5C CE 13 0A 00 00 
   260)      9191.4  Rx         0615  8  26 01 E3 E0 50 01 EA 00 
   261)      9191.8  Rx         0615  8  27 00 58 E5 9F C1 D4 EA 
   262)      9192.1  Rx         0615  8  28 00 00 01 E5 9F C1 D0 
   263)      9192.4  Rx         0615  8  29 EA FF FF FF E3 A0 20 
   264)      9192.8  Rx         0615  8  2A 06 E2 8C 00 04 E5 8C 
   265)      9193.1  Rx         0615  8  2B 30 00 FA 01 26 A3 E1 
   266)      9193.4  Rx         0615  8  2C A0 10 04 E3 A0 00 00 
   267)      9193.8  Rx         0615  8  2D E3 A0 20 06 EB 00 D5 
   268)      9194.1  Rx         0615  8  2E 9C EA 00 00 4B E5 9F 
   269)      9194.4  Rx         0615  8  2F C1 A8 EA FF FF F4 E5 
   270)      9194.8  Rx         0615  8  20 9F CE 94 EA FF FF F2 
   271)      9195.1  Rx         0615  8  21 E5 9F C1 9C EA 00 00 
   272)      9195.4  Rx         0615  8  22 41 E5 9F C1 98 EA 00 
   273)      9195.8  Rx         0615  8  23 00 30 E3 A0 20 01 EA 
   274)      9196.1  Rx         0615  8  24 00 00 3E E5 9F C1 90 
   275)      9196.4  Rx         0615  8  25 EA 00 00 26 E5 9F C1 
   276)      9196.8  Rx         0615  8  26 8C EA 00 00 24 E5 9F 
   277)      9197.1  Rx         0615  8  27 C1 88 EA FF FF F7 E5 
   278)      9197.4  Rx         0615  8  28 9F C1 84 EA 00 00 20 
   279)      9197.8  Rx         0615  8  29 E5 9F C1 80 EA 00 00 
   280)      9198.1  Rx         0615  8  2A 1E E5 9F C1 7C EA 00 
   281)      9198.4  Rx         0615  8  2B 00 31 E5 9F CE 48 EA 
   282)      9198.8  Rx         0615  8  2C 00 00 2F E5 9F CE 44 
   283)      9199.1  Rx         0615  8  2D EA 00 00 18 E5 9F CE 
   284)      9199.4  Rx         0615  8  2E 40 EA 00 00 2B E5 9F 
   285)      9199.8  Rx         0615  8  2F C1 60 EA 00 00 29 E5 
   286)      9200.1  Rx         0615  8  20 9F CE 34 EA 00 00 1E 
   287)      9200.5  Rx         0615  8  21 E5 9F C1 54 E3 A0 20 
   288)      9200.8  Rx         0615  8  22 06 EA 00 00 25 E5 9F 
   289)      9201.1  Rx         0615  8  23 C1 4C EA FF FF E2 E5 
   290)      9201.5  Rx         0615  8  24 9F C1 48 EA 00 00 20 
   291)      9201.8  Rx         0615  8  25 E5 9F C1 44 EA 00 00 
   292)      9202.2  Rx         0615  8  26 1E E3 A0 20 04 EA 00 
   293)      9202.5  Rx         0615  8  27 00 1D E5 9F C1 38 EA 
   294)      9202.8  Rx         0615  8  28 00 00 1A E5 9F C1 34 
   295)      9203.2  Rx         0615  8  29 EA FF FF F9 E5 9F C1 
   296)      9203.5  Rx         0615  8  2A 30 EA FF FF F7 E5 9F 
   297)      9203.8  Rx         0615  8  2B CD F0 EA 00 00 14 E3 
   298)      9204.2  Rx         0615  8  2C A0 20 02 EA 00 00 13 
   299)      9204.5  Rx         0615  8  2D E5 9F CD E4 EA 00 00 
   300)      9204.8  Rx         0615  8  2E 10 E5 9F CD E0 EA 00 
   301)      9205.2  Rx         0615  8  2F 00 0E E3 A0 20 05 EA 
   302)      9205.5  Rx         0615  8  20 00 00 0D E5 9F CD D4 
   303)      9205.8  Rx         0615  8  21 EA 00 00 0A E5 9F CD 
   304)      9206.2  Rx         0615  8  22 D0 EA 00 00 08 E3 A0 
   305)      9206.5  Rx         0615  8  23 20 07 EA 00 00 07 E5 
   306)      9206.8  Rx         0615  8  24 9F C0 F0 E3 A0 20 03 
   307)      9207.2  Rx         0615  8  25 EA 00 00 04 E5 9F C0 
   308)      9207.5  Rx         0615  8  26 E8 EA 00 00 01 E5 9F 
   309)      9207.8  Rx         0615  8  27 C0 E4 EA FF FF FF E3 
   310)      9208.2  Rx         0615  8  28 A0 20 08 E2 8C 00 04 
   311)      9208.5  Rx         0615  8  29 E5 8C 30 00 FA 01 26 
   312)      9208.9  Rx         0615  8  2A 52 E1 A0 00 05 E8 BD 
   313)      9209.2  Rx         0615  8  2B 80 38 08 01 9E B0 08 
   314)      9209.5  Rx         0615  8  2C 01 9E AC 08 01 9E B8 
   315)      9209.9  Rx         0615  8  2D 08 01 9E B4 08 01 9E 
   316)      9210.2  Rx         0615  8  2E A8 08 01 9E A4 08 01 
   317)      9210.5  Rx         0615  8  2F 9E A0 08 01 9E 9C 08 
   318)      9210.9  Rx         0615  8  20 01 A1 51 08 01 A1 21 
   319)      9211.2  Rx         0615  8  21 08 01 A0 49 08 01 9F 
   320)      9211.5  Rx         0615  8  22 B9 08 01 A0 91 08 01 
   321)      9211.9  Rx         0615  8  23 A0 9D 08 01 9F 1D 08 
   322)      9212.2  Rx         0615  8  24 01 A0 79 08 01 A0 25 
   323)      9212.5  Rx         0615  8  25 08 01 9F E9 08 01 9F 
   324)      9212.9  Rx         0615  8  26 7D 08 01 9F 71 08 01 
   325)      9213.2  Rx         0615  8  27 9E E1 08 01 9E D5 08 
   326)      9213.6  Rx         0615  8  28 01 A0 CD 08 01 A0 0D 
   327)      9213.9  Rx         0615  8  29 08 01 9F F5 08 01 9F 
   328)      9214.2  Rx         0615  8  2A 29 08 01 A0 D9 08 01 
   329)      9214.6  Rx         0615  8  2B 9E 98 08 01 A0 B1 08 
   330)      9214.9  Rx         0615  8  2C 01 A0 BD 08 01 A1 41 
   331)      9215.2  Rx         0615  8  2D 08 01 A1 05 08 01 A1 
   332)      9215.6  Rx         0615  8  2E 35 08 01 A0 F9 08 01 
   333)      9215.9  Rx         0615  8  2F 9F 61 08 01 9F 01 08 
   334)      9216.3  Rx         0615  8  20 01 A1 59 08 01 9E F5 
   335)      9216.6  Rx         0615  8  21 08 01 A1 11 08 01 9E 
   336)      9216.9  Rx         0615  8  22 C5 08 01 9E B9 08 01 
   337)      9217.3  Rx         0615  8  23 9F 55 08 01 A1 29 08 
   338)      9217.6  Rx         0615  8  24 01 9F 0D 08 01 9F 3D 
   339)      9217.9  Rx         0615  8  25 08 01 A0 E1 08 01 A0 
   340)      9218.3  Rx         0615  8  26 ED 08 01 A1 65 08 01 
   341)      9218.6  Rx         0615  8  27 9F 49 08 01 9F 31 08 
   342)      9219.0  Rx         0615  8  28 01 9F 85 08 01 9E E9 
   343)      9219.3  Rx         0615  8  29 08 01 9E D1 08 01 9E 
   344)      9219.6  Rx         0615  8  2A DD 08 01 9F 19 08 01 
   345)      9220.0  Rx         0615  8  2B 9F 25 08 01 9F 6D 08 
   346)      9220.3  Rx         0615  8  2C 01 9F 79 00 00 00 00 
   347)      9220.6  Rx         0615  8  2D 00 00 FF FF E5 1F 10 
   348)      9221.0  Rx         0615  8  2E 58 E2 81 20 09 E9 2D 
   349)      9221.3  Rx         0615  8  2F 4F F8 E5 D2 00 00 E3 
   350)      9221.6  Rx         0615  8  20 A0 C0 03 E7 C6 02 9C 
   351)      9222.0  Rx         0615  8  21 E5 C2 00 00 E2 81 20 
   352)      9222.3  Rx         0615  8  22 05 E3 A0 70 FF 81 20 
   353)      9340.8  Rx         0616  8  02 76 02 55 55 55 55 55 
   354)      9342.2  Rx         0615  8  14 02 36 03 E5 C1 70 04 
   355)      9345.3  Rx         0616  8  30 00 00 55 55 55 55 55 
   356)      9346.0  Rx         0615  8  21 E5 D2 00 00 E3 A0 80 
   357)      9346.4  Rx         0615  8  22 0F E7 C7 02 18 E5 C2 
   358)      9346.7  Rx         0615  8  23 00 00 E2 81 20 0B E5 
   359)      9347.0  Rx         0615  8  24 D2 00 00 E7 C1 00 1C 
   360)      9347.4  Rx         0615  8  25 E5 C2 00 00 E2 81 20 
   361)      9347.7  Rx         0615  8  26 0B E5 D2 00 00 E7 C3 
   362)      9348.0  Rx         0615  8  27 01 1C E5 C2 00 00 E2 
   363)      9348.4  Rx         0615  8  28 81 20 05 E5 D2 00 00 
   364)      9348.7  Rx         0615  8  29 E7 C1 00 1C E5 C2 00 
   365)      9349.0  Rx         0615  8  2A 00 E2 81 20 05 E5 D2 
   366)      9349.4  Rx         0615  8  2B 00 00 E7 C3 01 1C E5 
   367)      9349.7  Rx         0615  8  2C C2 00 00 E2 81 20 0A 
   368)      9350.0  Rx         0615  8  2D E5 D2 00 00 E7 C3 01 
   369)      9350.4  Rx         0615  8  2E 1C E5 C2 00 00 E2 81 
   370)      9350.7  Rx         0615  8  2F 20 0A E5 D2 00 00 E7 
   371)      9351.0  Rx         0615  8  20 C5 02 1C E5 C2 00 00 
   372)      9351.4  Rx         0615  8  21 E2 81 20 08 E5 D2 00 
   373)      9351.7  Rx         0615  8  22 00 E7 C1 00 1C E5 C2 
   374)      9352.0  Rx         0615  8  23 00 00 E2 81 20 09 E5 
   375)      9352.4  Rx         0615  8  24 D2 00 00 E3 A0 90 1F 
   376)      9352.7  Rx         0615  8  25 E7 C4 00 19 E5 C2 00 
   377)      9353.0  Rx         0615  8  26 00 E2 81 20 06 E5 D2 
   378)      9353.4  Rx         0615  8  27 00 00 E7 C4 01 9C E5 
   379)      9353.7  Rx         0615  8  28 C2 00 00 E2 81 20 06 
   380)      9354.1  Rx         0615  8  29 E5 D2 00 00 E3 A0 E0 
   381)      9354.4  Rx         0615  8  2A 07 E7 C7 02 9E E5 C2 
   382)      9354.7  Rx         0615  8  2B 00 00 E2 81 20 07 E5 
   383)      9355.1  Rx         0615  8  2C D2 00 00 E7 C3 01 1C 
   384)      9355.4  Rx         0615  8  2D E5 C2 00 00 E2 81 20 
   385)      9355.7  Rx         0615  8  2E 06 E5 D2 00 00 E7 C1 
   386)      9356.1  Rx         0615  8  2F 00 1C E5 C2 00 00 E2 
   387)      9356.4  Rx         0615  8  20 81 20 07 E5 D2 00 00 
   388)      9356.7  Rx         0615  8  21 E7 C1 00 1C E5 C2 00 
   389)      9357.1  Rx         0615  8  22 00 E2 81 20 07 E5 D2 
   390)      9357.4  Rx         0615  8  23 00 00 E7 C5 02 1C E5 
   391)      9357.7  Rx         0615  8  24 C2 00 00 E2 81 20 07 
   392)      9358.1  Rx         0615  8  25 E5 D2 00 00 E7 C7 03 
   393)      9358.4  Rx         0615  8  26 1C E5 C2 00 00 E2 81 
   394)      9358.8  Rx         0615  8  27 20 08 E5 D2 00 00 E7 
   395)      9359.1  Rx         0615  8  28 C7 02 9E E5 C2 00 00 
   396)      9359.4  Rx         0615  8  29 E2 81 20 08 E5 D2 00 
   397)      9359.8  Rx         0615  8  2A 00 E7 C4 01 1E E5 C2 
   398)      9360.1  Rx         0615  8  2B 00 00 E2 81 20 0A E1 
   399)      9360.4  Rx         0615  8  2C D2 00 B0 E2 81 30 0A 
   400)      9360.8  Rx         0615  8  2D E7 C9 03 18 E1 C2 00 
   401)      9361.1  Rx         0615  8  2E B0 E5 D3 20 00 E3 A0 
   402)      9361.5  Rx         0615  8  2F 00 00 E7 C6 23 10 E5 
   403)      9361.8  Rx         0615  8  20 C3 20 00 E2 81 30 09 
   404)      9362.1  Rx         0615  8  21 E5 D3 20 00 E7 C7 23 
   405)      9362.5  Rx         0615  8  22 90 E5 C3 20 00 E2 81 
   406)      9362.8  Rx         0615  8  23 30 0A E5 D3 20 00 E7 
   407)      9363.1  Rx         0615  8  24 C7 23 90 E5 C3 20 00 
   408)      9363.5  Rx         0615  8  25 E2 81 20 06 E5 D2 10 
   409)      9363.8  Rx         0615  8  26 00 E5 1F 31 F8 E7 C2 
   410)      9364.1  Rx         0615  8  27 11 10 E5 C2 10 00 E2 
   411)      9364.5  Rx         0615  8  28 83 20 09 E5 D2 10 00 
   412)      9364.8  Rx         0615  8  29 E7 C3 10 18 E5 C2 10 
   413)      9365.1  Rx         0615  8  2A 00 E2 83 20 08 E5 D2 
   414)      9365.5  Rx         0615  8  2B 10 00 E7 C3 11 1C E5 
   415)      9365.8  Rx         0615  8  2C C2 10 00 E2 83 20 08 
   416)      9366.2  Rx         0615  8  2D E5 D2 10 00 E7 C7 13 
   417)      9366.5  Rx         0615  8  2E 1C E5 C2 10 00 E2 4F 
   418)      9366.8  Rx         0615  8  2F 1F 7A E2 83 40 0A E8 
   419)      9367.2  Rx         0615  8  20 91 00 06 E1 D4 10 B0 
   420)      9367.5  Rx         0615  8  21 E7 CF 10 12 E1 C4 10 
   421)      9367.8  Rx         0615  8  22 B0 E2 83 40 09 E5 D4 
   422)      9368.2  Rx         0615  8  23 10 00 E7 C6 13 10 E5 
   423)      9368.5  Rx         0615  8  24 C4 10 00 E2 83 40 09 
   424)      9368.8  Rx         0615  8  25 E5 D4 10 00 E7 C7 13 
   425)      9369.2  Rx         0615  8  26 90 E5 C4 10 00 E2 83 
   426)      9369.5  Rx         0615  8  27 40 08 E5 D4 10 00 E7 
   427)      9369.8  Rx         0615  8  28 C5 12 1C E5 C4 10 00 
   428)      9370.2  Rx         0615  8  29 E2 83 40 04 E5 C3 70 
   429)      9370.5  Rx         0615  8  2A 07 E5 D4 10 00 E7 C7 
   430)      9370.8  Rx         0615  8  2B 12 9E E5 C4 10 00 E2 
   431)      9371.2  Rx         0615  8  2C 83 40 05 E1 D4 10 B0 
   432)      9371.5  Rx         0615  8  2D E2 83 30 08 E7 CF 10 
   433)      9371.8  Rx         0615  8  2E 12 E1 C4 10 B0 E5 D3 
   434)      9372.2  Rx         0615  8  2F 10 00 E7 C1 10 1C E5 
   435)      9372.5  Rx         0615  8  20 C3 10 00 E5 1F 12 7C 
   436)      9372.9  Rx         0615  8  21 E2 81 40 0B E5 D4 30 
   437)      9373.2  Rx         0615  8  22 00 E7 C1 30 1C E5 C4 
   438)      9373.5  Rx         0615  8  23 30 00 E2 81 40 0B E5 
   439)      9373.9  Rx         0615  8  24 D4 30 00 E7 C3 31 1C 
   440)      9374.2  Rx         0615  8  25 E5 C4 30 00 E2 81 40 
   441)      9374.5  Rx         0615  8  26 04 E5 D4 30 00 E7 C7 
   442)      9374.9  Rx         0615  8  27 33 1C E5 C4 30 00 E2 
   443)      9375.2  Rx         0615  8  28 81 40 04 E5 D4 30 00 
   444)      9375.5  Rx         0615  8  29 E7 C5 32 1C E5 C4 30 
   445)      9375.9  Rx         0615  8  2A 00 E2 81 40 04 E5 D4 
   446)      9376.2  Rx         0615  8  2B 30 00 E7 C3 31 1C E5 
   447)      9376.5  Rx         0615  8  2C C4 30 00 E2 81 40 04 
   448)      9376.9  Rx         0615  8  2D E5 D4 30 00 E7 C1 30 
   449)      9377.2  Rx         0615  8  2E 1C E5 C4 30 00 E2 81 
   450)      9377.5  Rx         0615  8  2F 40 05 E5 D4 30 00 E7 
   451)      9377.9  Rx         0615  8  20 C7 33 1C E5 C4 30 00 
   452)      9378.2  Rx         0615  8  21 E2 81 40 05 E5 D4 30 
   453)      9378.5  Rx         0615  8  22 00 E7 C5 32 1C E5 C4 
   454)      9378.9  Rx         0615  8  23 30 00 E2 81 40 05 E5 
   455)      9379.2  Rx         0615  8  24 D4 30 00 E7 C3 31 1C 
   456)      9379.5  Rx         0615  8  25 E5 C4 30 00 E2 81 40 
   457)      9379.9  Rx         0615  8  26 05 E5 D4 30 00 E7 C1 
   458)      9380.2  Rx         0615  8  27 30 1C E5 C4 30 00 E2 
   459)      9380.5  Rx         0615  8  28 81 40 06 E5 D4 30 00 
   460)      9380.9  Rx         0615  8  29 E7 C7 33 1C E5 C4 30 
   461)      9381.2  Rx         0615  8  2A 00 E2 81 40 06 E5 D4 
   462)      9381.5  Rx         0615  8  2B 30 00 E7 C5 32 1C E5 
   463)      9381.9  Rx         0615  8  2C C4 30 00 E2 81 40 06 
   464)      9382.2  Rx         0615  8  2D E5 D4 30 00 E7 C3 31 
   465)      9382.5  Rx         0615  8  2E 1C E5 C4 30 00 E2 81 
   466)      9382.9  Rx         0615  8  2F 40 06 E5 D4 30 00 E7 
   467)      9383.2  Rx         0615  8  20 C1 30 1C E5 C4 30 00 
   468)      9383.6  Rx         0615  8  21 E2 81 40 07 E5 D4 30 
   469)      9383.9  Rx         0615  8  22 00 E7 C7 33 1C E5 C4 
   470)      9384.2  Rx         0615  8  23 30 00 E2 81 40 07 E5 
   471)      9384.6  Rx         0615  8  24 D4 30 00 E7 C5 32 1C 
   472)      9384.9  Rx         0615  8  25 E5 C4 30 00 E2 81 40 
   473)      9385.2  Rx         0615  8  26 07 E5 D4 30 00 E7 C3 
   474)      9385.6  Rx         0615  8  27 31 1C E5 C4 30 00 E2 
   475)      9385.9  Rx         0615  8  28 81 40 07 E5 D4 30 00 
   476)      9386.3  Rx         0615  8  29 E7 C1 30 1C E5 C4 30 
   477)      9386.6  Rx         0615  8  2A 00 E2 81 40 08 E5 D4 
   478)      9386.9  Rx         0615  8  2B 30 00 E7 C7 33 1C E5 
   479)      9387.3  Rx         0615  8  2C C4 30 00 E2 81 40 08 
   480)      9387.6  Rx         0615  8  2D E5 D4 30 00 E7 C5 32 
   481)      9387.9  Rx         0615  8  2E 1C E5 C4 30 00 E2 81 
   482)      9388.3  Rx         0615  8  2F 40 08 E5 D4 30 00 E7 
   483)      9388.6  Rx         0615  8  20 C3 31 1C E5 C4 30 00 
   484)      9388.9  Rx         0615  8  21 E2 81 40 08 E5 D4 30 
   485)      9389.3  Rx         0615  8  22 00 E7 C1 30 1C E5 C4 
   486)      9389.6  Rx         0615  8  23 30 00 E2 81 40 09 E5 
   487)      9389.9  Rx         0615  8  24 D4 30 00 E7 C7 33 1C 
   488)      9390.3  Rx         0615  8  25 E5 C4 30 00 E2 81 40 
   489)      9390.6  Rx         0615  8  26 09 E5 D4 30 00 E7 C5 
   490)      9390.9  Rx         0615  8  27 32 1C E5 C4 30 00 E2 
   491)      9391.3  Rx         0615  8  28 81 40 09 E5 D4 30 00 
   492)      9391.6  Rx         0615  8  29 E7 C3 31 1C E5 C4 30 
   493)      9391.9  Rx         0615  8  2A 00 E2 81 40 09 E5 D4 
   494)      9392.3  Rx         0615  8  2B 30 00 E7 C1 30 1C E5 
   495)      9392.6  Rx         0615  8  2C C4 30 00 E2 81 40 0A 
   496)      9393.0  Rx         0615  8  2D E5 D4 30 00 E7 C7 33 
   497)      9393.3  Rx         0615  8  2E 1C E5 C4 30 00 E2 81 
   498)      9393.6  Rx         0615  8  2F 40 0A E5 D4 30 00 E7 
   499)      9394.0  Rx         0615  8  20 C5 32 1C E5 C4 30 00 
   500)      9394.3  Rx         0615  8  21 E2 81 40 0A E5 D4 30 
   501)      9394.6  Rx         0615  8  22 00 E7 C3 31 1C D4 30 
   502)      9489.7  Rx         0616  8  02 76 03 55 55 55 55 55 
   503)      9490.9  Rx         0615  8  14 02 36 04 E5 C4 30 00 
   504)      9498.6  Rx         0616  8  30 00 00 55 55 55 55 55 
   505)      9499.0  Rx         0615  8  21 E2 81 40 0A E5 D4 30 
   506)      9499.3  Rx         0615  8  22 00 E7 C1 30 1C E5 C4 
   507)      9499.7  Rx         0615  8  23 30 00 E2 81 40 0B E5 
   508)      9500.0  Rx         0615  8  24 D4 30 00 E7 C7 33 1C 
   509)      9500.3  Rx         0615  8  25 E5 C4 30 00 E2 81 30 
   510)      9500.7  Rx         0615  8  26 0B E5 D3 10 00 E7 C5 
   511)      9501.0  Rx         0615  8  27 12 1C E5 C3 10 00 E5 
   512)      9501.3  Rx         0615  8  28 1F 34 7C E2 83 40 04 
   513)      9501.7  Rx         0615  8  29 E5 D4 10 00 E7 C1 10 
   514)      9502.0  Rx         0615  8  2A 1C E5 C4 10 00 E2 83 
   515)      9502.3  Rx         0615  8  2B 40 04 E5 D4 10 00 E7 
   516)      9502.7  Rx         0615  8  2C C3 11 1C E5 C4 10 00 
   517)      9503.0  Rx         0615  8  2D E2 83 40 04 E5 D4 10 
   518)      9503.3  Rx         0615  8  2E 00 E2 83 30 04 E7 C5 
   519)      9503.7  Rx         0615  8  2F 12 1C E5 C4 10 00 E5 
   520)      9504.0  Rx         0615  8  20 D3 10 00 E7 C7 13 1C 
   521)      9504.3  Rx         0615  8  21 E5 C3 10 00 E5 1F 14 
   522)      9504.7  Rx         0615  8  22 C8 E2 81 40 0A E1 D4 
   523)      9505.0  Rx         0615  8  23 30 B0 E7 CF 30 12 E1 
   524)      9505.3  Rx         0615  8  24 C4 30 B0 E2 81 40 08 
   525)      9505.7  Rx         0615  8  25 E1 D4 30 B0 E7 CF 30 
   526)      9506.0  Rx         0615  8  26 12 E1 C4 30 B0 E2 81 
   527)      9506.3  Rx         0615  8  27 40 07 E5 D4 30 00 E7 
   528)      9506.7  Rx         0615  8  28 C2 31 10 E5 C4 30 00 
   529)      9507.0  Rx         0615  8  29 E2 81 40 07 E5 D4 30 
   530)      9507.3  Rx         0615  8  2A 00 E7 C0 30 10 E5 C4 
   531)      9507.7  Rx         0615  8  2B 30 00 E5 C1 70 05 E5 
   532)      9508.0  Rx         0615  8  2C C1 70 04 E5 1F 15 4C 
   533)      9508.4  Rx         0615  8  2D E2 81 40 04 E5 D4 30 
   534)      9508.7  Rx         0615  8  2E 00 E7 C5 32 1C E5 C4 
   535)      9509.0  Rx         0615  8  2F 30 00 E2 81 40 04 E5 
   536)      9509.4  Rx         0615  8  20 D4 30 00 E7 C1 30 1C 
   537)      9509.7  Rx         0615  8  21 E5 C4 30 00 E2 81 40 
   538)      9510.0  Rx         0615  8  22 04 E5 D4 30 00 E7 C3 
   539)      9510.4  Rx         0615  8  23 31 1C E5 C4 30 00 E2 
   540)      9510.7  Rx         0615  8  24 81 40 05 E5 D4 30 00 
   541)      9511.0  Rx         0615  8  25 E7 C3 31 1C E5 C4 30 
   542)      9511.4  Rx         0615  8  26 00 E2 81 40 05 E5 D4 
   543)      9511.7  Rx         0615  8  27 30 00 E7 C1 30 1C E5 
   544)      9512.0  Rx         0615  8  28 C4 30 00 E2 81 30 04 
   545)      9512.4  Rx         0615  8  29 E5 D3 10 00 E7 C7 13 
   546)      9512.7  Rx         0615  8  2A 1C E5 C3 10 00 E5 1F 
   547)      9513.1  Rx         0615  8  2B 15 B8 E2 81 40 04 E5 
   548)      9513.4  Rx         0615  8  2C D4 30 00 E7 C3 31 1C 
   549)      9513.7  Rx         0615  8  2D E5 C4 30 00 E2 81 40 
   550)      9514.1  Rx         0615  8  2E 04 E5 D4 30 00 E7 C5 
   551)      9514.4  Rx         0615  8  2F 32 1C E5 C4 30 00 E2 
   552)      9514.7  Rx         0615  8  20 81 40 04 E5 D4 30 00 
   553)      9515.1  Rx         0615  8  21 E7 C7 33 1C E5 C4 30 
   554)      9515.4  Rx         0615  8  22 00 E2 81 40 05 E5 D4 
   555)      9515.7  Rx         0615  8  23 30 00 E7 C1 30 1C E5 
   556)      9516.1  Rx         0615  8  24 C4 30 00 E2 81 30 04 
   557)      9516.4  Rx         0615  8  25 E5 D3 10 00 E7 C1 10 
   558)      9516.7  Rx         0615  8  26 1C E5 C3 10 00 E5 1F 
   559)      9517.1  Rx         0615  8  27 35 EC E2 83 40 0A E5 
   560)      9517.4  Rx         0615  8  28 D4 10 00 E7 C7 13 1C 
   561)      9517.8  Rx         0615  8  29 E5 C4 10 00 E2 83 40 
   562)      9518.1  Rx         0615  8  2A 09 E5 D4 10 00 E7 C1 
   563)      9518.4  Rx         0615  8  2B 10 1C E5 C4 10 00 E2 
   564)      9518.8  Rx         0615  8  2C 83 40 0A E5 D4 10 00 
   565)      9519.1  Rx         0615  8  2D E7 C5 12 1C E5 C4 10 
   566)      9519.4  Rx         0615  8  2E 00 E2 83 40 0A E1 D4 
   567)      9519.8  Rx         0615  8  2F 10 B0 E7 C8 13 9C E1 
   568)      9520.1  Rx         0615  8  20 C4 10 B0 E2 83 40 06 
   569)      9520.5  Rx         0615  8  21 E5 D4 10 00 E7 C7 13 
   570)      9520.8  Rx         0615  8  22 1C E5 C4 10 00 E2 83 
   571)      9521.1  Rx         0615  8  23 40 06 E5 D4 10 00 E7 
   572)      9521.5  Rx         0615  8  24 C5 12 1C E5 C4 10 00 
   573)      9521.8  Rx         0615  8  25 E2 83 40 07 E5 D4 10 
   574)      9522.1  Rx         0615  8  26 00 E7 C7 13 1C E5 C4 
   575)      9522.5  Rx         0615  8  27 10 00 E2 83 40 05 E5 
   576)      9522.8  Rx         0615  8  28 D4 10 00 E7 C1 10 1C 
   577)      9523.1  Rx         0615  8  29 E5 C4 10 00 E2 83 40 
   578)      9523.5  Rx         0615  8  2A 04 E5 D4 10 00 E7 C7 
   579)      9523.8  Rx         0615  8  2B 12 9E E5 C4 10 00 EA 
   580)      9524.1  Rx         0615  8  2C 00 00 02 08 01 9F A9 
   581)      9524.5  Rx         0615  8  2D 08 01 9F C1 08 01 9F 
   582)      9524.8  Rx         0615  8  2E FD E2 83 40 05 E5 D4 
   583)      9525.2  Rx         0615  8  2F 10 00 E2 83 60 05 E7 
   584)      9525.5  Rx         0615  8  20 C5 11 18 E5 C4 10 00 
   585)      9525.8  Rx         0615  8  21 E5 D6 10 00 E2 83 B0 
   586)      9526.2  Rx         0615  8  22 04 E7 C7 13 1C E5 C6 
   587)      9526.5  Rx         0615  8  23 10 00 E5 DB 10 00 E2 
   588)      9526.8  Rx         0615  8  24 83 A0 04 E7 C2 10 9C 
   589)      9527.2  Rx         0615  8  25 E5 CB 10 00 E5 DA 10 
   590)      9527.5  Rx         0615  8  26 00 E2 83 50 06 E7 C4 
   591)      9527.8  Rx         0615  8  27 11 9C E5 CA 10 00 E5 
   592)      9528.2  Rx         0615  8  28 D5 10 00 E2 83 B0 07 
   593)      9528.5  Rx         0615  8  29 E7 C3 10 9E E5 C5 10 
   594)      9528.8  Rx         0615  8  2A 00 E5 DB 10 00 E2 83 
   595)      9529.2  Rx         0615  8  2B A0 07 E7 C5 12 1C E5 
   596)      9529.5  Rx         0615  8  2C CB 10 00 E5 DA 10 00 
   597)      9529.8  Rx         0615  8  2D E2 83 50 08 E7 C3 11 
   598)      9530.2  Rx         0615  8  2E 1C E5 CA 10 00 E5 D5 
   599)      9530.5  Rx         0615  8  2F 10 00 E2 83 B0 08 E7 
   600)      9530.8  Rx         0615  8  20 C7 13 1C E5 C5 10 00 
   601)      9531.2  Rx         0615  8  21 E5 DB 10 00 E2 83 A0 
   602)      9531.5  Rx         0615  8  22 08 E7 C5 12 1C E5 CB 
   603)      9531.8  Rx         0615  8  23 10 00 E5 DA 10 00 E2 
   604)      9532.2  Rx         0615  8  24 83 50 06 E7 C3 11 1C 
   605)      9532.5  Rx         0615  8  25 E5 CA 10 00 E5 D5 10 
   606)      9532.8  Rx         0615  8  26 00 E2 83 B0 04 E7 C0 
   607)      9533.2  Rx         0615  8  27 10 10 E5 C5 10 00 E5 
   608)      9533.5  Rx         0615  8  28 DB 10 00 E2 83 60 09 
   609)      9533.8  Rx         0615  8  29 E7 C0 10 10 E5 CB 10 
   610)      9534.2  Rx         0615  8  2A 00 E5 D6 10 00 E2 83 
   611)      9534.5  Rx         0615  8  2B A0 0B E7 C7 11 19 E5 
   612)      9534.8  Rx         0615  8  2C C6 10 00 E5 DA 40 00 
   613)      9535.2  Rx         0615  8  2D E3 A0 10 7F E2 83 50 
   614)      9535.5  Rx         0615  8  2E 0A E5 1F B7 44 E7 C6 
   615)      9535.8  Rx         0615  8  2F 40 11 E5 CA 40 00 E5 
   616)      9536.2  Rx         0615  8  20 D5 A0 00 E2 8B 30 09 
   617)      9536.5  Rx         0615  8  21 E7 C3 A0 9E E5 C5 A0 
   618)      9536.8  Rx         0615  8  22 00 E5 D3 A0 00 E2 8B 
   619)      9537.2  Rx         0615  8  23 50 09 E7 C3 A1 1C E5 
   620)      9537.5  Rx         0615  8  24 C3 A0 00 E5 D5 40 00 
   621)      9537.8  Rx         0615  8  25 E2 8B 30 0B E7 C7 43 
   622)      9538.2  Rx         0615  8  26 1C E5 C5 40 00 E5 D3 
   623)      9538.5  Rx         0615  8  27 40 00 E2 8B 50 0B E7 
   624)      9538.8  Rx         0615  8  28 C5 42 1C E5 C3 40 00 
   625)      9539.2  Rx         0615  8  29 E5 D5 40 00 E2 8B 30 
   626)      9539.5  Rx         0615  8  2A 08 E7 C7 43 1C E5 C5 
   627)      9539.9  Rx         0615  8  2B 40 00 E5 D3 40 00 E2 
   628)      9540.2  Rx         0615  8  2C 8B 50 06 E7 C7 43 1C 
   629)      9540.5  Rx         0615  8  2D E5 C3 40 00 E5 D5 40 
   630)      9540.9  Rx         0615  8  2E 00 E2 8B 30 05 E7 C7 
   631)      9541.2  Rx         0615  8  2F 42 9E E5 C5 40 00 E5 
   632)      9541.5  Rx         0615  8  20 D3 40 00 E2 8B 50 05 
   633)      9541.9  Rx         0615  8  21 E7 C1 40 1C E5 C3 40 
   634)      9542.2  Rx         0615  8  22 00 E5 D5 40 00 E2 8B 
   635)      9542.5  Rx         0615  8  23 30 0A E7 C3 41 1C E5 
   636)      9542.9  Rx         0615  8  24 C5 40 00 E5 D3 40 00 
   637)      9543.2  Rx         0615  8  25 E2 8B 50 0A E7 C5 42 
   638)      9543.5  Rx         0615  8  26 1C E5 C3 40 00 E5 D5 
   639)      9543.9  Rx         0615  8  27 40 00 E2 8B 30 06 E7 
   640)      9544.2  Rx         0615  8  28 C7 43 1C E5 C5 40 00 
   641)      9544.5  Rx         0615  8  29 E5 D3 40 00 E2 8B 50 
   642)      9544.9  Rx         0615  8  2A 07 E7 C1 40 1C E5 C3 
   643)      9545.2  Rx         0615  8  2B 40 00 E5 D5 40 00 E2 
   644)      9545.5  Rx         0615  8  2C 8B 30 04 E7 C1 40 1C 
   645)      9545.9  Rx         0615  8  2D E5 C5 40 00 E5 D3 40 
   646)      9546.2  Rx         0615  8  2E 00 E2 8B 50 05 E7 C7 
   647)      9546.6  Rx         0615  8  2F 43 1C E5 C3 40 00 E5 
   648)      9546.9  Rx         0615  8  20 D5 40 00 E2 8B 30 07 
   649)      9547.2  Rx         0615  8  21 E7 C7 42 18 E5 C5 40 
   650)      9547.6  Rx         0615  8  22 00 E5 D3 40 00 C5 40 
   651)      9672.4  Rx         0616  8  02 76 04 55 55 55 55 55 
   652)      9673.6  Rx         0615  8  14 02 36 05 E2 8B 50 07 
   653)      9675.9  Rx         0616  8  30 00 00 55 55 55 55 55 
   654)      9677.0  Rx         0615  8  21 E7 C3 41 1C E5 C3 40 
   655)      9677.3  Rx         0615  8  22 00 E5 D5 40 00 E2 8B 
   656)      9677.6  Rx         0615  8  23 30 04 E7 C5 42 1C E5 
   657)      9678.0  Rx         0615  8  24 C5 40 00 E5 D3 40 00 
   658)      9678.3  Rx         0615  8  25 E2 8B 50 09 E7 C4 41 
   659)      9678.7  Rx         0615  8  26 1E E5 C3 40 00 E5 D5 
   660)      9679.0  Rx         0615  8  27 40 00 E2 8B 30 07 E7 
   661)      9679.3  Rx         0615  8  28 C5 42 1C E5 C5 40 00 
   662)      9679.7  Rx         0615  8  29 E5 D3 40 00 E2 8B 50 
   663)      9680.0  Rx         0615  8  2A 06 E7 C7 43 1C E5 C3 
   664)      9680.3  Rx         0615  8  2B 40 00 E5 D5 40 00 E2 
   665)      9680.7  Rx         0615  8  2C 8B 30 04 E7 C3 41 1C 
   666)      9681.0  Rx         0615  8  2D E5 C5 40 00 E5 D3 40 
   667)      9681.3  Rx         0615  8  2E 00 E2 8B 50 09 E7 C1 
   668)      9681.7  Rx         0615  8  2F 40 1C E5 C3 40 00 E5 
   669)      9682.0  Rx         0615  8  20 D5 40 00 E2 8B A0 08 
   670)      9682.3  Rx         0615  8  21 E5 1F B8 B4 E7 C1 40 
   671)      9682.7  Rx         0615  8  22 1C E5 C5 40 00 E5 DA 
   672)      9683.0  Rx         0615  8  23 60 00 E2 8B 30 07 E7 
   673)      9683.3  Rx         0615  8  24 C2 60 1E E5 CA 60 00 
   674)      9683.7  Rx         0615  8  25 E5 D3 A0 00 E2 8B 50 
   675)      9684.0  Rx         0615  8  26 09 E7 C4 A1 10 E5 C3 
   676)      9684.3  Rx         0615  8  27 A0 00 E5 D5 40 00 E2 
   677)      9684.7  Rx         0615  8  28 8B 30 0A E7 C4 41 90 
   678)      9685.0  Rx         0615  8  29 E5 C5 40 00 E5 D3 40 
   679)      9685.3  Rx         0615  8  2A 00 E2 8B 50 0A E7 C7 
   680)      9685.7  Rx         0615  8  2B 43 90 E5 C3 40 00 E5 
   681)      9686.0  Rx         0615  8  2C D5 40 00 E2 8B 30 04 
   682)      9686.3  Rx         0615  8  2D E7 C6 43 10 E5 C5 40 
   683)      9686.7  Rx         0615  8  2E 00 E1 D3 40 B0 E2 8B 
   684)      9687.0  Rx         0615  8  2F 50 0A E7 CF 40 90 E1 
   685)      9687.3  Rx         0615  8  20 C3 40 B0 E5 D5 40 00 
   686)      9687.7  Rx         0615  8  21 E2 8B 30 0A E7 C4 41 
   687)      9688.0  Rx         0615  8  22 10 E5 C5 40 00 E5 D3 
   688)      9688.3  Rx         0615  8  23 40 00 E2 8B 50 09 E7 
   689)      9688.7  Rx         0615  8  24 C5 42 90 E5 C3 40 00 
   690)      9689.0  Rx         0615  8  25 E5 D5 40 00 E2 8B 30 
   691)      9689.4  Rx         0615  8  26 09 E7 C0 40 10 E5 C5 
   692)      9689.7  Rx         0615  8  27 40 00 E5 D3 40 00 E2 
   693)      9690.0  Rx         0615  8  28 8B 50 08 E7 C1 40 90 
   694)      9690.4  Rx         0615  8  29 E5 C3 40 00 E1 D5 40 
   695)      9690.7  Rx         0615  8  2A B0 E2 8B 30 06 E7 CF 
   696)      9691.0  Rx         0615  8  2B 42 90 E1 C5 40 B0 E1 
   697)      9691.4  Rx         0615  8  2C D3 40 B0 E2 8B 50 09 
   698)      9691.7  Rx         0615  8  2D E7 CF 42 90 E1 C3 40 
   699)      9692.0  Rx         0615  8  2E B0 E5 D5 40 00 E2 8B 
   700)      9692.4  Rx         0615  8  2F A0 05 E5 1F B9 A0 E7 
   701)      9692.7  Rx         0615  8  20 C2 41 10 E5 C5 40 00 
   702)      9693.0  Rx         0615  8  21 E5 DA 40 00 E2 8B 50 
   703)      9693.4  Rx         0615  8  22 05 E7 C0 40 10 E5 CA 
   704)      9693.7  Rx         0615  8  23 40 00 E1 D5 40 B0 E2 
   705)      9694.0  Rx         0615  8  24 8B A0 04 E5 1F B9 D8 
   706)      9694.4  Rx         0615  8  25 E7 CB 40 10 E1 C5 40 
   707)      9694.7  Rx         0615  8  26 B0 E1 DA 40 B0 E2 8B 
   708)      9695.1  Rx         0615  8  27 30 0A E7 CF 42 10 E1 
   709)      9695.4  Rx         0615  8  28 CA 40 B0 E5 D3 40 00 
   710)      9695.7  Rx         0615  8  29 E2 8B 50 09 E7 C7 43 
   711)      9696.1  Rx         0615  8  2A 1C E5 C3 40 00 E5 D5 
   712)      9696.4  Rx         0615  8  2B 40 00 E2 8B 30 0A E7 
   713)      9696.7  Rx         0615  8  2C C1 40 1C E5 C5 40 00 
   714)      9697.1  Rx         0615  8  2D E5 D3 40 00 E2 8B 50 
   715)      9697.4  Rx         0615  8  2E 0A E7 C5 42 1C E5 C3 
   716)      9697.7  Rx         0615  8  2F 40 00 E1 D5 40 B0 E2 
   717)      9698.1  Rx         0615  8  20 8B 30 06 E7 C8 43 9C 
   718)      9698.4  Rx         0615  8  21 E1 C5 40 B0 E5 D3 40 
   719)      9698.7  Rx         0615  8  22 00 E2 8B 50 06 E7 C7 
   720)      9699.1  Rx         0615  8  23 43 1C E5 C3 40 00 E5 
   721)      9699.4  Rx         0615  8  24 D5 40 00 E2 8B 30 07 
   722)      9699.7  Rx         0615  8  25 E7 C5 42 1C E5 C5 40 
   723)      9700.1  Rx         0615  8  26 00 E5 D3 40 00 E2 8B 
   724)      9700.4  Rx         0615  8  27 50 05 E7 C7 43 1C E5 
   725)      9700.7  Rx         0615  8  28 C3 40 00 E5 D5 40 00 
   726)      9701.1  Rx         0615  8  29 E2 8B 30 04 E7 C1 40 
   727)      9701.4  Rx         0615  8  2A 1C E5 C5 40 00 E5 D3 
   728)      9701.8  Rx         0615  8  2B 40 00 E2 8B 50 05 E7 
   729)      9702.1  Rx         0615  8  2C C7 42 9E E5 C3 40 00 
   730)      9702.4  Rx         0615  8  2D E5 D5 40 00 E2 8B 30 
   731)      9702.8  Rx         0615  8  2E 05 E7 C5 41 18 E5 C5 
   732)      9703.1  Rx         0615  8  2F 40 00 E5 D3 40 00 E2 
   733)      9703.4  Rx         0615  8  20 8B 50 04 E7 C7 43 1C 
   734)      9703.8  Rx         0615  8  21 E5 C3 40 00 E5 D5 40 
   735)      9704.1  Rx         0615  8  22 00 E2 8B 30 04 E7 C2 
   736)      9704.4  Rx         0615  8  23 40 9C E5 C5 40 00 E5 
   737)      9704.8  Rx         0615  8  24 D3 40 00 E2 8B 50 06 
   738)      9705.1  Rx         0615  8  25 E7 C4 41 9C E5 C3 40 
   739)      9705.4  Rx         0615  8  26 00 E5 D5 40 00 E2 8B 
   740)      9705.8  Rx         0615  8  27 30 07 E7 C3 40 9E E5 
   741)      9706.1  Rx         0615  8  28 C5 40 00 E5 D3 40 00 
   742)      9706.4  Rx         0615  8  29 E2 8B 50 07 E7 C5 42 
   743)      9706.8  Rx         0615  8  2A 1C E5 C3 40 00 E5 D5 
   744)      9707.1  Rx         0615  8  2B 40 00 E2 8B 30 08 E7 
   745)      9707.4  Rx         0615  8  2C C3 41 1C E5 C5 40 00 
   746)      9707.8  Rx         0615  8  2D E5 D3 40 00 E2 8B 50 
   747)      9708.1  Rx         0615  8  2E 08 E7 C7 43 1C E5 C3 
   748)      9708.4  Rx         0615  8  2F 40 00 E5 D5 40 00 E2 
   749)      9708.8  Rx         0615  8  20 8B 30 08 E7 C5 42 1C 
   750)      9709.1  Rx         0615  8  21 E5 C5 40 00 E5 D3 40 
   751)      9709.5  Rx         0615  8  22 00 E2 8B 50 06 E7 C3 
   752)      9709.8  Rx         0615  8  23 41 1C E5 C3 40 00 E5 
   753)      9710.1  Rx         0615  8  24 D5 40 00 E2 8B 30 04 
   754)      9710.5  Rx         0615  8  25 E7 C0 40 10 E5 C5 40 
   755)      9710.8  Rx         0615  8  26 00 E5 D3 40 00 E2 8B 
   756)      9711.1  Rx         0615  8  27 50 09 E7 C0 40 10 E5 
   757)      9711.5  Rx         0615  8  28 C3 40 00 E5 D5 40 00 
   758)      9711.8  Rx         0615  8  29 E2 8B 60 0B E7 C7 41 
   759)      9712.1  Rx         0615  8  2A 19 E5 C5 40 00 E5 D6 
   760)      9712.5  Rx         0615  8  2B 40 00 E2 8B 50 0A E5 
   761)      9712.8  Rx         0615  8  2C 1F BB 4C E7 C6 40 11 
   762)      9713.1  Rx         0615  8  2D E5 C6 40 00 E5 D5 40 
   763)      9713.5  Rx         0615  8  2E 00 E2 8B 30 04 E7 C3 
   764)      9713.8  Rx         0615  8  2F 40 9E E5 C5 40 00 E5 
   765)      9714.1  Rx         0615  8  20 D3 40 00 E2 8B 50 04 
   766)      9714.5  Rx         0615  8  21 E7 C7 43 1C E5 C3 40 
   767)      9714.8  Rx         0615  8  22 00 E5 D5 40 00 E2 8B 
   768)      9715.2  Rx         0615  8  23 30 05 E7 C5 42 1C E5 
   769)      9715.5  Rx         0615  8  24 C5 40 00 E5 D3 40 00 
   770)      9715.8  Rx         0615  8  25 E2 8B 50 05 E7 C7 42 
   771)      9716.2  Rx         0615  8  26 9E E5 C3 40 00 E5 D5 
   772)      9716.5  Rx         0615  8  27 40 00 E2 8B 60 05 E5 
   773)      9716.8  Rx         0615  8  28 1F BB BC E7 C1 40 1C 
   774)      9717.2  Rx         0615  8  29 E5 C5 40 00 E5 D6 40 
   775)      9717.5  Rx         0615  8  2A 00 E2 8B 30 06 E7 C3 
   776)      9717.9  Rx         0615  8  2B 41 1C E5 C6 40 00 E5 
   777)      9718.2  Rx         0615  8  2C D3 40 00 E2 8B 50 06 
   778)      9718.5  Rx         0615  8  2D E7 C5 42 1C E5 C3 40 
   779)      9718.9  Rx         0615  8  2E 00 E5 D5 40 00 E2 8B 
   780)      9719.3  Rx         0615  8  2F 30 06 E7 C7 43 1C E5 
   781)      9719.6  Rx         0615  8  20 C5 40 00 E5 D3 40 00 
   782)      9719.9  Rx         0615  8  21 E2 8B 50 06 E7 C1 40 
   783)      9720.3  Rx         0615  8  22 1C E5 C3 40 00 E5 D5 
   784)      9720.6  Rx         0615  8  23 40 00 E2 8B 30 05 E7 
   785)      9720.9  Rx         0615  8  24 C3 41 1C E5 C5 40 00 
   786)      9721.3  Rx         0615  8  25 E5 D3 40 00 E2 8B 50 
   787)      9721.6  Rx         0615  8  26 04 E7 C7 43 1C E5 C3 
   788)      9722.0  Rx         0615  8  27 40 00 E5 D5 40 00 E2 
   789)      9722.3  Rx         0615  8  28 8B 30 04 E7 C5 41 18 
   790)      9722.6  Rx         0615  8  29 E5 C5 40 00 E5 D3 40 
   791)      9723.0  Rx         0615  8  2A 00 E2 8B 50 07 E7 C7 
   792)      9723.3  Rx         0615  8  2B 43 1C E5 C3 40 00 E5 
   793)      9723.6  Rx         0615  8  2C D5 40 00 E2 8B 30 07 
   794)      9724.0  Rx         0615  8  2D E7 C1 40 1C E5 C5 40 
   795)      9724.3  Rx         0615  8  2E 00 E5 D3 40 00 E2 8B 
   796)      9724.6  Rx         0615  8  2F 50 07 E7 C5 42 1C E5 
   797)      9725.0  Rx         0615  8  20 C3 40 00 E5 D5 40 00 
   798)      9725.3  Rx         0615  8  21 E2 8B 30 07 E7 C3 41 
   799)      9725.6  Rx         0615  8  22 1C E5 C5 40 00 C3 41 
   800)      9845.0  Rx         0616  8  02 76 05 55 55 55 55 55 
   801)      9846.1  Rx         0615  8  14 02 36 06 E5 D3 40 00 
   802)      9850.4  Rx         0616  8  30 00 00 55 55 55 55 55 
   803)      9850.8  Rx         0615  8  21 E2 8B 50 05 E7 C7 43 
   804)      9851.2  Rx         0615  8  22 1C E5 C3 40 00 E5 D5 
   805)      9851.5  Rx         0615  8  23 40 00 E2 8B A0 08 E5 
   806)      9851.8  Rx         0615  8  24 1F 3C AC E7 C3 41 1C 
   807)      9852.2  Rx         0615  8  25 E5 C5 40 00 E1 DA 40 
   808)      9852.5  Rx         0615  8  26 B0 E2 83 B0 04 E7 CF 
   809)      9852.9  Rx         0615  8  27 40 12 E1 CA 40 B0 E5 
   810)      9853.2  Rx         0615  8  28 DB 40 00 E2 83 60 04 
   811)      9853.5  Rx         0615  8  29 E7 C5 42 1C E5 CB 40 
   812)      9853.9  Rx         0615  8  2A 00 E5 D6 40 00 E7 C3 
   813)      9854.2  Rx         0615  8  2B 41 1C E5 C6 40 00 EA 
   814)      9854.5  Rx         0615  8  2C 00 00 11 08 01 9F 9D 
   815)      9854.9  Rx         0615  8  2D 08 01 A0 15 08 01 A0 
   816)      9855.2  Rx         0615  8  2E A5 08 01 A0 69 08 01 
   817)      9855.6  Rx         0615  8  2F A0 5D 08 01 A0 2D 08 
   818)      9855.9  Rx         0615  8  20 01 A0 81 08 01 9F 91 
   819)      9856.2  Rx         0615  8  21 08 01 A0 39 08 01 9F 
   820)      9856.6  Rx         0615  8  22 CD 08 01 A0 51 08 01 
   821)      9856.9  Rx         0615  8  23 9F D9 08 01 9F B5 08 
   822)      9857.3  Rx         0615  8  24 01 9F E5 08 01 9F F1 
   823)      9857.6  Rx         0615  8  25 08 01 A0 09 00 00 00 
   824)      9857.9  Rx         0615  8  26 00 00 00 03 FF E2 83 
   825)      9858.3  Rx         0615  8  27 60 04 E5 D6 40 00 E2 
   826)      9858.6  Rx         0615  8  28 83 B0 05 E7 C7 43 1C 
   827)      9858.9  Rx         0615  8  29 E5 C6 40 00 E5 DB 40 
   828)      9859.3  Rx         0615  8  2A 00 E2 83 A0 04 E5 1F 
   829)      9859.6  Rx         0615  8  2B 5C F4 E7 C1 40 1C E5 
   830)      9860.0  Rx         0615  8  2C CB 40 00 E5 DA 30 00 
   831)      9860.3  Rx         0615  8  2D E2 85 60 04 E7 C1 30 
   832)      9860.6  Rx         0615  8  2E 1C E5 CA 30 00 E5 D6 
   833)      9861.0  Rx         0615  8  2F 40 00 E2 85 B0 04 E7 
   834)      9861.3  Rx         0615  8  20 C7 43 1C E5 C6 40 00 
   835)      9861.6  Rx         0615  8  21 E5 DB 40 00 E2 85 A0 
   836)      9862.0  Rx         0615  8  22 04 E7 C5 42 1C E5 CB 
   837)      9862.3  Rx         0615  8  23 40 00 E5 DA 40 00 E2 
   838)      9862.6  Rx         0615  8  24 85 30 04 E7 C3 41 1C 
   839)      9863.0  Rx         0615  8  25 E5 CA 40 00 E5 D3 40 
   840)      9863.3  Rx         0615  8  26 00 E2 85 B0 05 E7 C1 
   841)      9863.6  Rx         0615  8  27 40 1C E5 C3 40 00 E5 
   842)      9864.0  Rx         0615  8  28 DB 40 00 E2 85 A0 05 
   843)      9864.3  Rx         0615  8  29 E7 C7 43 1C E5 CB 40 
   844)      9864.7  Rx         0615  8  2A 00 E5 DA 40 00 E2 85 
   845)      9865.0  Rx         0615  8  2B 30 05 E7 C5 42 1C E5 
   846)      9865.3  Rx         0615  8  2C CA 40 00 E5 D3 40 00 
   847)      9865.7  Rx         0615  8  2D E2 85 B0 05 E7 C3 41 
   848)      9866.0  Rx         0615  8  2E 1C E5 C3 40 00 E5 DB 
   849)      9866.3  Rx         0615  8  2F 40 00 E2 85 A0 06 E7 
   850)      9866.7  Rx         0615  8  20 C1 40 1C E5 CB 40 00 
   851)      9867.0  Rx         0615  8  21 E5 DA 40 00 E2 85 30 
   852)      9867.4  Rx         0615  8  22 06 E7 C7 43 1C E5 CA 
   853)      9867.7  Rx         0615  8  23 40 00 E5 D3 40 00 E2 
   854)      9868.0  Rx         0615  8  24 85 B0 06 E7 C5 42 1C 
   855)      9868.4  Rx         0615  8  25 E5 C3 40 00 E5 DB 40 
   856)      9868.7  Rx         0615  8  26 00 E2 85 A0 06 E7 C3 
   857)      9869.0  Rx         0615  8  27 41 1C E5 CB 40 00 E5 
   858)      9869.4  Rx         0615  8  28 DA 40 00 E2 85 30 07 
   859)      9869.7  Rx         0615  8  29 E7 C1 40 1C E5 CA 40 
   860)      9870.0  Rx         0615  8  2A 00 E5 D3 40 00 E2 85 
   861)      9870.4  Rx         0615  8  2B B0 07 E7 C7 43 1C E5 
   862)      9870.7  Rx         0615  8  2C C3 40 00 E5 DB 40 00 
   863)      9871.1  Rx         0615  8  2D E2 85 A0 07 E7 C5 42 
   864)      9871.4  Rx         0615  8  2E 1C E5 CB 40 00 E5 DA 
   865)      9871.7  Rx         0615  8  2F 40 00 E2 85 30 07 E7 
   866)      9872.1  Rx         0615  8  20 C3 41 1C E5 CA 40 00 
   867)      9872.4  Rx         0615  8  21 E5 D3 40 00 E2 85 B0 
   868)      9872.7  Rx         0615  8  22 08 E7 C1 40 1C E5 C3 
   869)      9873.1  Rx         0615  8  23 40 00 E5 DB 40 00 E2 
   870)      9873.4  Rx         0615  8  24 85 A0 08 E7 C7 43 1C 
   871)      9873.7  Rx         0615  8  25 E5 CB 40 00 E5 DA 40 
   872)      9874.1  Rx         0615  8  26 00 E2 85 30 08 E7 C5 
   873)      9874.4  Rx         0615  8  27 42 1C E5 CA 40 00 E5 
   874)      9874.7  Rx         0615  8  28 D3 40 00 E2 85 B0 08 
   875)      9875.1  Rx         0615  8  29 E7 C3 41 1C E5 C3 40 
   876)      9875.4  Rx         0615  8  2A 00 E5 DB 40 00 E2 85 
   877)      9875.7  Rx         0615  8  2B A0 09 E7 C1 40 1C E5 
   878)      9876.1  Rx         0615  8  2C CB 40 00 E5 DA 40 00 
   879)      9876.4  Rx         0615  8  2D E2 85 30 09 E7 C7 43 
   880)      9876.7  Rx         0615  8  2E 1C E5 CA 40 00 E5 D3 
   881)      9877.1  Rx         0615  8  2F 40 00 E2 85 B0 09 E7 
   882)      9877.4  Rx         0615  8  20 C5 42 1C E5 C3 40 00 
   883)      9877.7  Rx         0615  8  21 E5 DB 40 00 E2 85 A0 
   884)      9878.1  Rx         0615  8  22 09 E7 C3 41 1C E5 CB 
   885)      9878.4  Rx         0615  8  23 40 00 E5 DA 40 00 E2 
   886)      9878.7  Rx         0615  8  24 85 30 0A E7 C1 40 1C 
   887)      9879.1  Rx         0615  8  25 E5 CA 40 00 E5 D3 40 
   888)      9879.4  Rx         0615  8  26 00 E2 85 B0 0A E7 C7 
   889)      9879.7  Rx         0615  8  27 43 1C E5 C3 40 00 E5 
   890)      9880.1  Rx         0615  8  28 DB 40 00 E2 85 A0 0A 
   891)      9880.4  Rx         0615  8  29 E7 C5 42 1C E5 CB 40 
   892)      9880.8  Rx         0615  8  2A 00 E5 DA 40 00 E2 85 
   893)      9881.1  Rx         0615  8  2B 30 0A E7 C3 41 1C E5 
   894)      9881.4  Rx         0615  8  2C CA 40 00 E5 D3 40 00 
   895)      9881.8  Rx         0615  8  2D E2 85 B0 0B E7 C1 40 
   896)      9882.1  Rx         0615  8  2E 1C E5 C3 40 00 E5 DB 
   897)      9882.4  Rx         0615  8  2F 40 00 E2 85 A0 0B E7 
   898)      9882.8  Rx         0615  8  20 C7 43 1C E5 CB 40 00 
   899)      9883.1  Rx         0615  8  21 E5 DA 40 00 E2 85 30 
   900)      9883.4  Rx         0615  8  22 0B E7 C5 42 1C E5 CA 
   901)      9883.8  Rx         0615  8  23 40 00 E5 D3 40 00 E2 
   902)      9884.1  Rx         0615  8  24 85 60 0B E7 C3 41 1C 
   903)      9884.4  Rx         0615  8  25 E5 C3 40 00 E5 D6 30 
   904)      9884.8  Rx         0615  8  26 00 E5 1F BF 00 E7 C1 
   905)      9885.1  Rx         0615  8  27 30 1C E5 C6 30 00 E2 
   906)      9885.5  Rx         0615  8  28 8B 60 05 E5 D6 40 00 
   907)      9885.8  Rx         0615  8  29 E2 8B A0 05 E7 C7 43 
   908)      9888.2  Rx         0615  8  2A 1C E5 C6 40 00 E5 DA 
   909)      9888.5  Rx         0615  8  2B 40 00 E2 8B 50 04 E7 
   910)      9888.8  Rx         0615  8  2C C5 42 1C E5 CA 40 00 
   911)      9889.2  Rx         0615  8  2D E5 D5 40 00 E2 8B 30 
   912)      9889.5  Rx         0615  8  2E 05 E7 C5 42 1C E5 C5 
   913)      9889.8  Rx         0615  8  2F 40 00 E5 D3 40 00 E2 
   914)      9890.2  Rx         0615  8  20 8B A0 05 E7 C1 40 1C 
   915)      9890.5  Rx         0615  8  21 E5 C3 40 00 E5 DA 40 
   916)      9890.8  Rx         0615  8  22 00 E2 8B 50 04 E7 C3 
   917)      9891.2  Rx         0615  8  23 41 1C E5 CA 40 00 E5 
   918)      9891.5  Rx         0615  8  24 D5 40 00 E2 8B 30 04 
   919)      9891.9  Rx         0615  8  25 E7 C1 40 1C E5 C5 40 
   920)      9892.2  Rx         0615  8  26 00 E5 D3 40 00 E2 8B 
   921)      9892.5  Rx         0615  8  27 A0 04 E7 C7 43 1C E5 
   922)      9892.9  Rx         0615  8  28 C3 40 00 E5 DA 40 00 
   923)      9893.2  Rx         0615  8  29 E2 8B 50 06 E5 1F BF 
   924)      9893.5  Rx         0615  8  2A A4 E7 C3 41 1C E5 CA 
   925)      9893.9  Rx         0615  8  2B 40 00 E1 D5 30 B0 E2 
   926)      9894.2  Rx         0615  8  2C 8B 60 0A E7 CF 30 12 
   927)      9894.5  Rx         0615  8  2D E1 C5 30 B0 E1 D6 30 
   928)      9894.9  Rx         0615  8  2E B0 E2 8B A0 09 E7 CB 
   929)      9895.2  Rx         0615  8  2F 30 10 E1 C6 30 B0 E1 
   930)      9895.5  Rx         0615  8  20 DA 30 B0 E2 4F 5F BD 
   931)      9895.9  Rx         0615  8  21 E7 CF 32 10 E1 CA 30 
   932)      9896.2  Rx         0615  8  22 B0 E2 8B A0 04 E8 95 
   933)      9896.5  Rx         0615  8  23 00 18 E1 DA 60 B0 E2 
   934)      9896.9  Rx         0615  8  24 8B 50 05 E7 CF 63 14 
   935)      9897.2  Rx         0615  8  25 E1 CA 60 B0 E1 D5 30 
   936)      9897.5  Rx         0615  8  26 B0 E7 CD 32 14 E1 C5 
   937)      9897.9  Rx         0615  8  27 30 B0 E2 8B 50 06 E1 
   938)      9898.2  Rx         0615  8  28 D5 30 B0 E2 8B A0 07 
   939)      9898.5  Rx         0615  8  29 E7 CB 31 14 E1 C5 30 
   940)      9898.9  Rx         0615  8  2A B0 E1 DA 30 B0 E5 1F 
   941)      9899.2  Rx         0615  8  2B B3 60 E7 C9 30 14 E1 
   942)      9899.5  Rx         0615  8  2C CA 30 B0 E2 8B A0 0A 
   943)      9899.9  Rx         0615  8  2D E5 DA 60 00 E2 8B 50 
   944)      9900.2  Rx         0615  8  2E 09 E7 C7 63 1C E5 CA 
   945)      9900.5  Rx         0615  8  2F 60 00 E5 D5 60 00 E2 
   946)      9900.9  Rx         0615  8  20 8B 30 0A E7 C1 60 1C 
   947)      9901.2  Rx         0615  8  21 E5 C5 60 00 E5 D3 60 
   948)      9901.5  Rx         0615  8  22 00 E2 8B 50 0A D3 60 
   949)     10027.5  Rx         0616  8  02 76 06 55 55 55 55 55 
   950)     10028.7  Rx         0615  8  14 02 36 07 E7 C5 62 1C 
   951)     10031.0  Rx         0616  8  30 00 00 55 55 55 55 55 
   952)     10032.0  Rx         0615  8  21 E5 C3 60 00 E1 D5 60 
   953)     10032.4  Rx         0615  8  22 B0 E2 8B 30 06 E7 C8 
   954)     10032.7  Rx         0615  8  23 63 9C E1 C5 60 B0 E5 
   955)     10033.0  Rx         0615  8  24 D3 60 00 E2 8B 50 06 
   956)     10033.4  Rx         0615  8  25 E7 C7 63 1C E5 C3 60 
   957)     10033.7  Rx         0615  8  26 00 E5 D5 60 00 E2 8B 
   958)     10034.0  Rx         0615  8  27 30 07 E7 C5 62 1C E5 
   959)     10034.4  Rx         0615  8  28 C5 60 00 E5 D3 60 00 
   960)     10034.7  Rx         0615  8  29 E2 8B 50 05 E7 C7 63 
   961)     10035.1  Rx         0615  8  2A 1C E5 C3 60 00 E5 D5 
   962)     10035.4  Rx         0615  8  2B 60 00 E2 8B 30 04 E7 
   963)     10035.7  Rx         0615  8  2C C1 60 1C E5 C5 60 00 
   964)     10036.1  Rx         0615  8  2D E5 D3 60 00 E2 8B 50 
   965)     10036.4  Rx         0615  8  2E 05 E7 C7 62 9E E5 C3 
   966)     10036.7  Rx         0615  8  2F 60 00 E5 D5 60 00 E2 
   967)     10037.1  Rx         0615  8  20 8B 30 05 E7 C5 61 18 
   968)     10037.4  Rx         0615  8  21 E5 C5 60 00 E5 D3 60 
   969)     10037.7  Rx         0615  8  22 00 E2 8B 50 04 E7 C7 
   970)     10038.1  Rx         0615  8  23 63 1C E5 C3 60 00 E5 
   971)     10038.4  Rx         0615  8  24 D5 60 00 E2 8B 30 04 
   972)     10038.7  Rx         0615  8  25 E7 C2 60 9C E5 C5 60 
   973)     10039.1  Rx         0615  8  26 00 E5 D3 60 00 E2 8B 
   974)     10039.4  Rx         0615  8  27 50 06 E7 C4 61 9C E5 
   975)     10039.7  Rx         0615  8  28 C3 60 00 E5 D5 60 00 
   976)     10040.1  Rx         0615  8  29 E2 8B 30 07 E7 C3 60 
   977)     10040.4  Rx         0615  8  2A 9E E5 C5 60 00 E5 D3 
   978)     10040.7  Rx         0615  8  2B 60 00 E2 8B 50 07 E7 
   979)     10041.1  Rx         0615  8  2C C5 62 1C E5 C3 60 00 
   980)     10041.4  Rx         0615  8  2D E5 D5 60 00 E2 8B 30 
   981)     10041.7  Rx         0615  8  2E 08 E7 C3 61 1C E5 C5 
   982)     10042.1  Rx         0615  8  2F 60 00 E5 D3 60 00 E2 
   983)     10042.4  Rx         0615  8  20 8B 50 08 E7 C7 63 1C 
   984)     10042.8  Rx         0615  8  21 E5 C3 60 00 E5 D5 60 
   985)     10043.1  Rx         0615  8  22 00 E2 8B 30 08 E7 C5 
   986)     10043.4  Rx         0615  8  23 62 1C E5 C5 60 00 E5 
   987)     10043.8  Rx         0615  8  24 D3 60 00 E2 8B 50 07 
   988)     10044.1  Rx         0615  8  25 E7 C3 61 1C E5 C3 60 
   989)     10044.4  Rx         0615  8  26 00 E5 D5 60 00 E2 8B 
   990)     10044.8  Rx         0615  8  27 30 08 E7 C1 60 1C E5 
   991)     10045.1  Rx         0615  8  28 C5 60 00 E5 D3 60 00 
   992)     10045.4  Rx         0615  8  29 E2 8B 50 06 E7 C1 60 
   993)     10045.8  Rx         0615  8  2A 1C E5 C3 60 00 E5 D5 
   994)     10046.1  Rx         0615  8  2B 60 00 E2 8B 30 04 E7 
   995)     10046.4  Rx         0615  8  2C C0 60 10 E5 C5 60 00 
   996)     10046.8  Rx         0615  8  2D E5 D3 60 00 E2 8B 50 
   997)     10047.1  Rx         0615  8  2E 09 E7 C0 60 10 E5 C3 
   998)     10047.5  Rx         0615  8  2F 60 00 E5 D5 60 00 E2 
   999)     10047.8  Rx         0615  8  20 8B 30 0B E7 C7 61 19 
  1000)     10048.1  Rx         0615  8  21 E5 C5 60 00 E5 D3 60 
  1001)     10048.5  Rx         0615  8  22 00 E7 C6 60 11 E5 C3 
  1002)     10048.8  Rx         0615  8  23 60 00 E2 8B 60 0A E5 
  1003)     10049.1  Rx         0615  8  24 1F 55 1C E5 D6 30 00 
  1004)     10049.5  Rx         0615  8  25 E2 85 B0 04 E7 C3 30 
  1005)     10049.8  Rx         0615  8  26 9E E5 C6 30 00 E5 DB 
  1006)     10050.1  Rx         0615  8  27 60 00 E3 A0 30 01 E7 
  1007)     10050.5  Rx         0615  8  28 C6 63 13 E5 CB 60 00 
  1008)     10050.8  Rx         0615  8  29 E2 85 B0 04 E5 DB 60 
  1009)     10051.1  Rx         0615  8  2A 00 E7 C4 62 13 E5 CB 
  1010)     10051.5  Rx         0615  8  2B 60 00 E2 85 B0 06 E5 
  1011)     10051.8  Rx         0615  8  2C C5 70 05 E5 DB 60 00 
  1012)     10052.1  Rx         0615  8  2D E7 C3 61 93 E5 CB 60 
  1013)     10052.5  Rx         0615  8  2E 00 E2 85 B0 06 E5 DB 
  1014)     10052.8  Rx         0615  8  2F 60 00 E7 C2 61 13 E5 
  1015)     10053.1  Rx         0615  8  20 CB 60 00 E2 85 B0 07 
  1016)     10053.5  Rx         0615  8  21 E5 DB 60 00 E7 C5 62 
  1017)     10053.8  Rx         0615  8  22 93 E5 CB 60 00 E2 85 
  1018)     10054.1  Rx         0615  8  23 B0 08 E5 1F AB C8 E5 
  1019)     10054.5  Rx         0615  8  24 DB 50 00 E2 8A 60 04 
  1020)     10054.8  Rx         0615  8  25 E7 C5 52 93 E5 CB 50 
  1021)     10055.2  Rx         0615  8  26 00 E1 D6 50 B0 E3 07 
  1022)     10055.5  Rx         0615  8  27 BF FF E7 CF 50 1F E1 
  1023)     10055.8  Rx         0615  8  28 8B 50 05 E2 8A B0 06 
  1024)     10056.2  Rx         0615  8  29 E1 C6 50 B0 E1 DB 50 
  1025)     10056.5  Rx         0615  8  2A B0 E7 CF 50 12 E1 CB 
  1026)     10056.8  Rx         0615  8  2B 50 B0 E5 1F B5 90 E5 
  1027)     10057.2  Rx         0615  8  2C CA 70 08 E2 8B A0 04 
  1028)     10057.5  Rx         0615  8  2D E5 DA 60 00 E2 8B 50 
  1029)     10057.8  Rx         0615  8  2E 04 E7 C6 63 13 E5 CA 
  1030)     10058.2  Rx         0615  8  2F 60 00 E5 D5 60 00 E7 
  1031)     10058.5  Rx         0615  8  20 C4 62 13 E5 C5 60 00 
  1032)     10058.8  Rx         0615  8  21 E2 8B 50 06 E5 CB 70 
  1033)     10059.2  Rx         0615  8  22 05 E5 D5 60 00 E7 C3 
  1034)     10059.5  Rx         0615  8  23 61 93 E5 C5 60 00 E2 
  1035)     10059.8  Rx         0615  8  24 8B 50 06 E5 D5 60 00 
  1036)     10060.2  Rx         0615  8  25 E7 C2 61 13 E5 C5 60 
  1037)     10060.5  Rx         0615  8  26 00 E2 8B 50 07 E5 D5 
  1038)     10060.8  Rx         0615  8  27 60 00 E2 8B A0 08 E7 
  1039)     10061.2  Rx         0615  8  28 C6 63 13 E5 C5 60 00 
  1040)     10061.5  Rx         0615  8  29 E5 DA 50 00 E7 C5 52 
  1041)     10061.8  Rx         0615  8  2A 93 E5 CA 50 00 E5 1F 
  1042)     10062.2  Rx         0615  8  2B 5C 68 E2 85 A0 0A E5 
  1043)     10062.5  Rx         0615  8  2C DA 60 00 E2 85 B0 09 
  1044)     10062.8  Rx         0615  8  2D E7 C7 63 93 E5 CA 60 
  1045)     10063.2  Rx         0615  8  2E 00 E5 DB 60 00 E7 C7 
  1046)     10063.5  Rx         0615  8  2F 63 1C E5 CB 60 00 E2 
  1047)     10063.9  Rx         0615  8  20 85 B0 07 E5 C5 70 08 
  1048)     10064.2  Rx         0615  8  21 E5 DB 60 00 E7 C3 61 
  1049)     10064.5  Rx         0615  8  22 10 E5 CB 60 00 E2 85 
  1050)     10064.9  Rx         0615  8  23 B0 07 E5 DB 60 00 E7 
  1051)     10065.2  Rx         0615  8  24 C7 62 10 E5 CB 60 00 
  1052)     10065.5  Rx         0615  8  25 E2 85 60 04 E5 C5 00 
  1053)     10065.9  Rx         0615  8  26 06 E5 1F B6 58 E1 D6 
  1054)     10066.2  Rx         0615  8  27 50 B0 E2 8B A0 08 E7 
  1055)     10066.5  Rx         0615  8  28 CF 50 12 E1 C6 50 B0 
  1056)     10066.9  Rx         0615  8  29 E3 E0 60 00 E5 8A 60 
  1057)     10067.2  Rx         0615  8  2A 00 E2 8B 60 06 E5 CB 
  1058)     10067.6  Rx         0615  8  2B 70 07 E5 D6 50 00 E7 
  1059)     10067.9  Rx         0615  8  2C C7 52 18 E5 C6 50 00 
  1060)     10068.2  Rx         0615  8  2D E2 8B 60 06 E5 D6 50 
  1061)     10068.6  Rx         0615  8  2E 00 E7 C3 50 18 E5 C6 
  1062)     10068.9  Rx         0615  8  2F 50 00 E5 1F 56 90 E5 
  1063)     10069.2  Rx         0615  8  20 CB 70 05 E5 CB 70 04 
  1064)     10069.6  Rx         0615  8  21 E5 C5 70 0B E5 C5 70 
  1065)     10069.9  Rx         0615  8  22 0A E2 85 A0 04 E5 C5 
  1066)     10070.3  Rx         0615  8  23 70 09 E5 C5 70 08 E5 
  1067)     10070.6  Rx         0615  8  24 DA 60 00 E2 85 B0 04 
  1068)     10070.9  Rx         0615  8  25 E7 C3 61 1C E5 CA 60 
  1069)     10071.3  Rx         0615  8  26 00 E5 DB 60 00 E7 C7 
  1070)     10071.6  Rx         0615  8  27 62 9E E5 CB 60 00 E2 
  1071)     10071.9  Rx         0615  8  28 85 B0 05 E5 DB 60 00 
  1072)     10072.3  Rx         0615  8  29 E7 C7 62 9E E5 CB 60 
  1073)     10072.6  Rx         0615  8  2A 00 E2 85 B0 06 E5 DB 
  1074)     10072.9  Rx         0615  8  2B 60 00 E7 C7 62 9E E5 
  1075)     10073.3  Rx         0615  8  2C CB 60 00 E2 85 B0 07 
  1076)     10073.6  Rx         0615  8  2D E5 DB 60 00 E7 C7 62 
  1077)     10073.9  Rx         0615  8  2E 9E E5 CB 60 00 E2 85 
  1078)     10074.3  Rx         0615  8  2F B0 06 E5 DB 60 00 E7 
  1079)     10074.6  Rx         0615  8  20 C1 60 1C E5 CB 60 00 
  1080)     10074.9  Rx         0615  8  21 E2 85 B0 05 E5 DB 60 
  1081)     10075.3  Rx         0615  8  22 00 E2 85 A0 04 E7 C1 
  1082)     10075.6  Rx         0615  8  23 60 1C E5 CB 60 00 E5 
  1083)     10075.9  Rx         0615  8  24 DA 50 00 E5 1F B7 1C 
  1084)     10076.3  Rx         0615  8  25 E7 C1 50 1C E5 CA 50 
  1085)     10076.6  Rx         0615  8  26 00 E2 8B A0 04 E5 DA 
  1086)     10076.9  Rx         0615  8  27 60 00 E2 8B 50 04 E7 
  1087)     10077.3  Rx         0615  8  28 C7 63 1C E5 CA 60 00 
  1088)     10077.6  Rx         0615  8  29 E5 D5 60 00 E7 C5 62 
  1089)     10078.0  Rx         0615  8  2A 1C E5 C5 60 00 E2 8B 
  1090)     10078.3  Rx         0615  8  2B 50 04 E5 D5 60 00 E7 
  1091)     10078.6  Rx         0615  8  2C C3 61 1C E5 C5 60 00 
  1092)     10079.0  Rx         0615  8  2D E2 8B 50 04 E5 D5 60 
  1093)     10079.3  Rx         0615  8  2E 00 E7 C1 60 1C E5 C5 
  1094)     10079.6  Rx         0615  8  2F 60 00 E2 8B 50 05 E5 
  1095)     10080.0  Rx         0615  8  20 D5 60 00 E7 C7 63 1C 
  1096)     10080.3  Rx         0615  8  21 E5 C5 60 00 E2 8B 50 
  1097)     10080.6  Rx         0615  8  22 05 E5 D5 60 00 8B 50 
  1098)     10185.8  Rx         0616  8  02 76 07 55 55 55 55 55 
  1099)     10187.1  Rx         0615  8  14 02 36 08 E7 C5 62 1C 
  1100)     10189.9  Rx         0616  8  30 00 00 55 55 55 55 55 
  1101)     10191.1  Rx         0615  8  21 E5 C5 60 00 E2 8B 50 
  1102)     10191.5  Rx         0615  8  22 05 E5 D5 60 00 E7 C3 
  1103)     10191.8  Rx         0615  8  23 61 1C E5 C5 60 00 E2 
  1104)     10192.1  Rx         0615  8  24 8B 50 05 E5 D5 60 00 
  1105)     10192.5  Rx         0615  8  25 E7 C1 60 1C E5 C5 60 
  1106)     10192.8  Rx         0615  8  26 00 E2 8B 50 06 E5 D5 
  1107)     10193.2  Rx         0615  8  27 60 00 E7 C7 63 1C E5 
  1108)     10193.5  Rx         0615  8  28 C5 60 00 E2 8B 50 06 
  1109)     10193.8  Rx         0615  8  29 E5 D5 60 00 E7 C5 62 
  1110)     10194.2  Rx         0615  8  2A 1C E5 C5 60 00 E2 8B 
  1111)     10194.5  Rx         0615  8  2B 50 06 E5 D5 60 00 E7 
  1112)     10194.8  Rx         0615  8  2C C3 61 1C E5 C5 60 00 
  1113)     10195.2  Rx         0615  8  2D E2 8B 50 06 E5 D5 60 
  1114)     10195.5  Rx         0615  8  2E 00 E7 C1 60 1C E5 C5 
  1115)     10195.8  Rx         0615  8  2F 60 00 E2 8B 50 07 E5 
  1116)     10196.2  Rx         0615  8  20 D5 60 00 E7 C7 63 1C 
  1117)     10196.5  Rx         0615  8  21 E5 C5 60 00 E2 8B 50 
  1118)     10196.8  Rx         0615  8  22 07 E5 D5 60 00 E7 C5 
  1119)     10197.2  Rx         0615  8  23 62 1C E5 C5 60 00 E2 
  1120)     10197.5  Rx         0615  8  24 8B 50 07 E5 D5 60 00 
  1121)     10197.8  Rx         0615  8  25 E7 C3 61 1C E5 C5 60 
  1122)     10198.2  Rx         0615  8  26 00 E2 8B 50 07 E5 D5 
  1123)     10198.5  Rx         0615  8  27 60 00 E7 C1 60 1C E5 
  1124)     10198.8  Rx         0615  8  28 C5 60 00 E2 8B 50 08 
  1125)     10199.2  Rx         0615  8  29 E5 D5 60 00 E7 C7 63 
  1126)     10199.5  Rx         0615  8  2A 1C E5 C5 60 00 E2 8B 
  1127)     10199.8  Rx         0615  8  2B 50 08 E5 D5 60 00 E7 
  1128)     10200.2  Rx         0615  8  2C C5 62 1C E5 C5 60 00 
  1129)     10200.5  Rx         0615  8  2D E2 8B 50 08 E5 D5 60 
  1130)     10200.8  Rx         0615  8  2E 00 E7 C3 61 1C E5 C5 
  1131)     10201.2  Rx         0615  8  2F 60 00 E2 8B 50 08 E5 
  1132)     10201.5  Rx         0615  8  20 D5 60 00 E7 C1 60 1C 
  1133)     10201.8  Rx         0615  8  21 E5 C5 60 00 E2 8B 50 
  1134)     10202.2  Rx         0615  8  22 09 E5 D5 60 00 E7 C7 
  1135)     10202.5  Rx         0615  8  23 63 1C E5 C5 60 00 E2 
  1136)     10202.9  Rx         0615  8  24 8B 50 09 E5 D5 60 00 
  1137)     10203.2  Rx         0615  8  25 E7 C5 62 1C E5 C5 60 
  1138)     10203.5  Rx         0615  8  26 00 E2 8B 50 09 E5 D5 
  1139)     10203.9  Rx         0615  8  27 60 00 E7 C3 61 1C E5 
  1140)     10204.2  Rx         0615  8  28 C5 60 00 E2 8B 50 09 
  1141)     10204.5  Rx         0615  8  29 E5 D5 60 00 E7 C1 60 
  1142)     10204.9  Rx         0615  8  2A 1C E5 C5 60 00 E2 8B 
  1143)     10205.2  Rx         0615  8  2B 50 0A E5 D5 60 00 E7 
  1144)     10205.5  Rx         0615  8  2C C7 63 1C E5 C5 60 00 
  1145)     10205.9  Rx         0615  8  2D E2 8B 50 0A E5 D5 60 
  1146)     10206.2  Rx         0615  8  2E 00 E7 C5 62 1C E5 C5 
  1147)     10206.5  Rx         0615  8  2F 60 00 E2 8B 50 0A E5 
  1148)     10206.9  Rx         0615  8  20 D5 60 00 E7 C3 61 1C 
  1149)     10207.2  Rx         0615  8  21 E5 C5 60 00 E2 8B 50 
  1150)     10207.5  Rx         0615  8  22 0A E5 D5 60 00 E7 C1 
  1151)     10207.9  Rx         0615  8  23 60 1C E5 C5 60 00 E2 
  1152)     10208.2  Rx         0615  8  24 8B 50 0B E5 D5 60 00 
  1153)     10208.6  Rx         0615  8  25 E7 C7 63 1C E5 C5 60 
  1154)     10208.9  Rx         0615  8  26 00 E2 8B 50 0B E5 D5 
  1155)     10209.3  Rx         0615  8  27 60 00 E7 C5 62 1C E5 
  1156)     10209.6  Rx         0615  8  28 C5 60 00 E2 8B 50 0B 
  1157)     10209.9  Rx         0615  8  29 E5 D5 60 00 E2 8B A0 
  1158)     10210.3  Rx         0615  8  2A 0B E7 C3 61 1C E5 C5 
  1159)     10210.6  Rx         0615  8  2B 60 00 E5 DA 50 00 E5 
  1160)     10211.0  Rx         0615  8  2C 1F B9 1C E7 C1 50 1C 
  1161)     10211.3  Rx         0615  8  2D E5 CA 50 00 E2 8B A0 
  1162)     10211.6  Rx         0615  8  2E 09 E1 DA 60 B0 E2 8B 
  1163)     10212.0  Rx         0615  8  2F 50 08 E7 CB 60 90 E1 
  1164)     10212.3  Rx         0615  8  20 CA 60 B0 E1 D5 60 B0 
  1165)     10212.6  Rx         0615  8  21 E7 CF 62 90 E1 C5 60 
  1166)     10213.0  Rx         0615  8  22 B0 E5 CB 00 04 E5 CB 
  1167)     10213.3  Rx         0615  8  23 00 05 E5 CB 00 06 E5 
  1168)     10213.7  Rx         0615  8  24 CB 00 07 E5 1F BF C8 
  1169)     10214.0  Rx         0615  8  25 E2 8B A0 07 E5 DA 60 
  1170)     10214.3  Rx         0615  8  26 00 E2 8B 50 07 E7 C3 
  1171)     10214.7  Rx         0615  8  27 61 1C E5 CA 60 00 E5 
  1172)     10215.0  Rx         0615  8  28 D5 60 00 E7 C5 62 1C 
  1173)     10215.3  Rx         0615  8  29 E5 C5 60 00 E2 8B 50 
  1174)     10215.7  Rx         0615  8  2A 07 E5 CB 70 08 E5 D5 
  1175)     10216.0  Rx         0615  8  2B 60 00 E7 C7 63 1C E5 
  1176)     10216.3  Rx         0615  8  2C C5 60 00 E2 8B 50 06 
  1177)     10216.7  Rx         0615  8  2D E5 D5 60 00 E7 C1 60 
  1178)     10217.0  Rx         0615  8  2E 1C E5 C5 60 00 E2 8B 
  1179)     10217.4  Rx         0615  8  2F 50 06 E5 D5 60 00 E7 
  1180)     10217.7  Rx         0615  8  20 C3 61 1C E5 C5 60 00 
  1181)     10218.0  Rx         0615  8  21 E2 8B 50 06 E5 D5 60 
  1182)     10218.4  Rx         0615  8  22 00 E7 C5 62 1C E5 C5 
  1183)     10218.7  Rx         0615  8  23 60 00 E2 8B 50 06 E5 
  1184)     10219.0  Rx         0615  8  24 D5 60 00 E7 C7 63 1C 
  1185)     10219.4  Rx         0615  8  25 E5 C5 60 00 E2 8B 50 
  1186)     10219.7  Rx         0615  8  26 05 E5 D5 60 00 E7 C1 
  1187)     10220.0  Rx         0615  8  27 60 1C E5 C5 60 00 E2 
  1188)     10220.4  Rx         0615  8  28 8B 50 05 E5 D5 60 00 
  1189)     10220.7  Rx         0615  8  29 E7 C3 61 1C E5 C5 60 
  1190)     10221.0  Rx         0615  8  2A 00 E2 8B 50 05 E5 D5 
  1191)     10221.4  Rx         0615  8  2B 60 00 E7 C5 62 1C E5 
  1192)     10221.7  Rx         0615  8  2C C5 60 00 E2 8B 50 04 
  1193)     10222.0  Rx         0615  8  2D E5 D5 60 00 E7 C3 61 
  1194)     10222.4  Rx         0615  8  2E 1C E5 C5 60 00 E2 8B 
  1195)     10222.7  Rx         0615  8  2F 50 04 E5 D5 60 00 E7 
  1196)     10223.0  Rx         0615  8  20 C5 62 1C E5 C5 60 00 
  1197)     10223.4  Rx         0615  8  21 E2 8B 50 04 E5 D5 60 
  1198)     10223.7  Rx         0615  8  22 00 E7 C7 63 1C E5 C5 
  1199)     10224.0  Rx         0615  8  23 60 00 E2 8B 50 05 E5 
  1200)     10224.4  Rx         0615  8  24 D5 60 00 E2 8B A0 04 
  1201)     10224.7  Rx         0615  8  25 E7 C7 63 1C E5 C5 60 
  1202)     10225.0  Rx         0615  8  26 00 E5 DA 50 00 E5 1F 
  1203)     10225.4  Rx         0615  8  27 BA 44 E7 C1 50 1C E5 
  1204)     10225.7  Rx         0615  8  28 CA 50 00 E2 8B A0 08 
  1205)     10226.1  Rx         0615  8  29 E5 DA 50 00 E2 8B 60 
  1206)     10226.4  Rx         0615  8  2A 07 E7 C7 53 1C E5 CA 
  1207)     10226.7  Rx         0615  8  2B 50 00 E5 D6 50 00 E2 
  1208)     10227.1  Rx         0615  8  2C 8B A0 05 E7 C6 50 11 
  1209)     10227.4  Rx         0615  8  2D E5 C6 50 00 E1 DA 50 
  1210)     10227.7  Rx         0615  8  2E B0 E2 8B 60 04 E5 1F 
  1211)     10228.1  Rx         0615  8  2F BA B4 E7 CB 50 10 E1 
  1212)     10228.4  Rx         0615  8  20 CA 50 B0 E1 D6 50 B0 
  1213)     10228.7  Rx         0615  8  21 E2 8B A0 04 E7 CF 52 
  1214)     10229.1  Rx         0615  8  22 10 E1 C6 50 B0 E5 DA 
  1215)     10229.4  Rx         0615  8  23 60 00 E2 8B 50 04 E7 
  1216)     10229.7  Rx         0615  8  24 C6 63 13 E5 CA 60 00 
  1217)     10230.1  Rx         0615  8  25 E5 D5 60 00 E7 C4 62 
  1218)     10230.4  Rx         0615  8  26 13 E5 C5 60 00 E2 8B 
  1219)     10230.7  Rx         0615  8  27 50 06 E5 CB 70 05 E5 
  1220)     10231.1  Rx         0615  8  28 D5 60 00 E7 C3 61 93 
  1221)     10231.4  Rx         0615  8  29 E5 C5 60 00 E2 8B 50 
  1222)     10231.7  Rx         0615  8  2A 06 E5 D5 60 00 E7 C2 
  1223)     10232.1  Rx         0615  8  2B 61 13 E5 C5 60 00 E2 
  1224)     10232.4  Rx         0615  8  2C 8B 50 07 E5 D5 60 00 
  1225)     10232.7  Rx         0615  8  2D E2 8B A0 08 E7 C5 62 
  1226)     10233.1  Rx         0615  8  2E 93 E5 C5 60 00 E5 DA 
  1227)     10233.4  Rx         0615  8  2F 50 00 E5 9F BF E8 E7 
  1228)     10233.7  Rx         0615  8  20 C5 52 93 E5 CA 50 00 
  1229)     10234.1  Rx         0615  8  21 E2 8B A0 04 E5 DA 60 
  1230)     10234.4  Rx         0615  8  22 00 E2 8B 50 04 E7 C7 
  1231)     10234.7  Rx         0615  8  23 63 90 E5 CA 60 00 E5 
  1232)     10235.1  Rx         0615  8  24 D5 60 00 E7 C6 63 10 
  1233)     10235.4  Rx         0615  8  25 E5 C5 60 00 E2 8B 50 
  1234)     10235.7  Rx         0615  8  26 04 E5 D5 60 00 E7 C5 
  1235)     10236.1  Rx         0615  8  27 62 90 E5 C5 60 00 E2 
  1236)     10236.4  Rx         0615  8  28 8B 50 04 E5 D5 60 00 
  1237)     10236.7  Rx         0615  8  29 E2 8B A0 05 E7 C4 62 
  1238)     10237.1  Rx         0615  8  2A 10 E5 C5 60 00 E5 DA 
  1239)     10237.4  Rx         0615  8  2B 50 00 E5 1F 6B 6C E7 
  1240)     10237.7  Rx         0615  8  2C C1 50 1C E5 CA 50 00 
  1241)     10238.1  Rx         0615  8  2D E2 86 A0 09 E5 DA 50 
  1242)     10238.4  Rx         0615  8  2E 00 E2 86 B0 0A E7 C7 
  1243)     10238.7  Rx         0615  8  2F 53 1C E5 CA 50 00 E5 
  1244)     10239.1  Rx         0615  8  20 DB 50 00 E7 C3 51 1C 
  1245)     10239.4  Rx         0615  8  21 E5 CB 50 00 E2 86 B0 
  1246)     10239.8  Rx         0615  8  22 09 E5 DB 50 00 86 B0 
  1247)     10355.7  Rx         0616  8  02 76 08 55 55 55 55 55 
  1248)     10356.9  Rx         0615  8  14 02 36 09 E7 C5 52 1C 
  1249)     10359.2  Rx         0616  8  30 00 00 55 55 55 55 55 
  1250)     10360.3  Rx         0615  8  21 E5 CB 50 00 E2 86 B0 
  1251)     10360.6  Rx         0615  8  22 06 E5 DB 50 00 E7 C3 
  1252)     10360.9  Rx         0615  8  23 51 1C E5 CB 50 00 E2 
  1253)     10361.3  Rx         0615  8  24 86 B0 05 E5 DB 50 00 
  1254)     10361.6  Rx         0615  8  25 E7 C3 50 9E E5 CB 50 
  1255)     10362.0  Rx         0615  8  26 00 E2 86 B0 0A E5 DB 
  1256)     10362.3  Rx         0615  8  27 50 00 E7 C7 53 1C E5 
  1257)     10362.6  Rx         0615  8  28 CB 50 00 E2 86 B0 0A 
  1258)     10363.0  Rx         0615  8  29 E5 DB 50 00 E7 C5 52 
  1259)     10363.3  Rx         0615  8  2A 1C E5 CB 50 00 E2 86 
  1260)     10363.6  Rx         0615  8  2B B0 07 E5 DB 50 00 E7 
  1261)     10364.0  Rx         0615  8  2C C1 50 1C E5 CB 50 00 
  1262)     10364.3  Rx         0615  8  2D E2 86 B0 07 E5 DB 50 
  1263)     10364.6  Rx         0615  8  2E 00 E7 C3 51 1C E5 CB 
  1264)     10365.0  Rx         0615  8  2F 50 00 E2 86 B0 07 E5 
  1265)     10365.3  Rx         0615  8  20 DB 50 00 E7 C5 52 1C 
  1266)     10365.7  Rx         0615  8  21 E5 CB 50 00 E2 86 B0 
  1267)     10366.0  Rx         0615  8  22 07 E5 DB 50 00 E7 C7 
  1268)     10366.3  Rx         0615  8  23 53 1C E5 CB 50 00 E2 
  1269)     10366.7  Rx         0615  8  24 86 B0 05 E5 DB 50 00 
  1270)     10367.0  Rx         0615  8  25 E2 86 A0 04 E7 C7 52 
  1271)     10367.4  Rx         0615  8  26 18 E5 CB 50 00 E5 DA 
  1272)     10367.7  Rx         0615  8  27 50 00 E2 86 B0 04 E7 
  1273)     10368.0  Rx         0615  8  28 C3 50 18 E5 CA 50 00 
  1274)     10368.4  Rx         0615  8  29 E5 DB A0 00 EA 00 00 
  1275)     10368.7  Rx         0615  8  2A 01 00 00 00 00 00 00 
  1276)     10369.0  Rx         0615  8  2B 01 FF E7 C7 A2 18 E5 
  1277)     10369.4  Rx         0615  8  2C CB A0 00 E2 86 B0 09 
  1278)     10369.7  Rx         0615  8  2D E5 DB 50 00 E7 C3 50 
  1279)     10370.0  Rx         0615  8  2E 18 E5 CB 50 00 E2 86 
  1280)     10370.4  Rx         0615  8  2F B0 06 E5 DB 50 00 E7 
  1281)     10370.7  Rx         0615  8  20 C1 50 1C E5 CB 50 00 
  1282)     10371.0  Rx         0615  8  21 E2 86 B0 08 E5 DB 50 
  1283)     10371.4  Rx         0615  8  22 00 E7 C7 52 90 E5 CB 
  1284)     10371.7  Rx         0615  8  23 50 00 E2 86 B0 06 E5 
  1285)     10372.0  Rx         0615  8  24 DB 50 00 E2 86 A0 06 
  1286)     10372.4  Rx         0615  8  25 E7 C5 52 1C E5 CB 50 
  1287)     10372.7  Rx         0615  8  26 00 E5 1F BC 9C E5 DA 
  1288)     10373.1  Rx         0615  8  27 50 00 E2 8B 60 08 E7 
  1289)     10373.4  Rx         0615  8  28 C7 53 1C E5 CA 50 00 
  1290)     10373.7  Rx         0615  8  29 E3 E0 50 00 E5 86 50 
  1291)     10374.1  Rx         0615  8  2A 00 E2 8B 50 07 E5 D5 
  1292)     10374.4  Rx         0615  8  2B 60 00 E7 C7 61 99 E5 
  1293)     10374.7  Rx         0615  8  2C C5 60 00 E2 8B 50 07 
  1294)     10375.1  Rx         0615  8  2D E5 D5 60 00 E7 C2 61 
  1295)     10375.4  Rx         0615  8  2E 13 E5 C5 60 00 E2 8B 
  1296)     10375.7  Rx         0615  8  2F 50 07 E5 D5 60 00 E7 
  1297)     10376.1  Rx         0615  8  20 C1 60 1C E5 C5 60 00 
  1298)     10376.4  Rx         0615  8  21 E2 8B 50 06 E5 D5 60 
  1299)     10376.7  Rx         0615  8  22 00 E7 C7 62 18 E5 C5 
  1300)     10377.1  Rx         0615  8  23 60 00 E2 8B 50 06 E5 
  1301)     10377.4  Rx         0615  8  24 D5 60 00 E7 C3 60 18 
  1302)     10377.7  Rx         0615  8  25 E5 C5 60 00 E5 9F 6F 
  1303)     10378.1  Rx         0615  8  26 E0 E2 86 50 04 E5 CB 
  1304)     10378.4  Rx         0615  8  27 70 05 E5 CB 70 04 E3 
  1305)     10378.7  Rx         0615  8  28 E0 B0 00 E5 85 B0 00 
  1306)     10379.1  Rx         0615  8  29 E2 86 B0 08 E1 DB 50 
  1307)     10379.4  Rx         0615  8  2A B0 E7 CF 50 12 E1 CB 
  1308)     10379.7  Rx         0615  8  2B 50 B0 E5 1F BD 28 E2 
  1309)     10380.1  Rx         0615  8  2C 8B A0 04 E5 C6 70 0A 
  1310)     10380.4  Rx         0615  8  2D E5 C6 70 0B E5 DA 60 
  1311)     10380.7  Rx         0615  8  2E 00 E2 8B 50 06 E7 C3 
  1312)     10381.1  Rx         0615  8  2F 61 1C E5 CA 60 00 E1 
  1313)     10381.4  Rx         0615  8  20 D5 60 B0 E7 CF 63 14 
  1314)     10381.7  Rx         0615  8  21 E1 C5 60 B0 E2 8B 50 
  1315)     10382.1  Rx         0615  8  22 05 E5 D5 60 00 E7 C7 
  1316)     10382.4  Rx         0615  8  23 60 91 E5 C5 60 00 E2 
  1317)     10382.7  Rx         0615  8  24 8B 50 08 E5 D5 60 00 
  1318)     10383.1  Rx         0615  8  25 E7 C7 63 1C E5 C5 60 
  1319)     10383.4  Rx         0615  8  26 00 E2 8B 50 04 E5 D5 
  1320)     10383.7  Rx         0615  8  27 60 00 E7 C6 62 1E E5 
  1321)     10384.1  Rx         0615  8  28 C5 60 00 E2 8B 50 08 
  1322)     10384.4  Rx         0615  8  29 E5 D5 60 00 E7 C5 61 
  1323)     10384.8  Rx         0615  8  2A 9E E5 C5 60 00 E2 8B 
  1324)     10385.1  Rx         0615  8  2B 50 09 E5 D5 60 00 E7 
  1325)     10385.4  Rx         0615  8  2C C6 60 11 E5 C5 60 00 
  1326)     10385.8  Rx         0615  8  2D E2 8B 50 08 E5 D5 60 
  1327)     10386.1  Rx         0615  8  2E 00 E7 C2 60 9C E5 C5 
  1328)     10386.4  Rx         0615  8  2F 60 00 E2 8B 60 08 E5 
  1329)     10386.8  Rx         0615  8  20 1F AD D0 E1 D6 50 B0 
  1330)     10387.1  Rx         0615  8  21 E2 8A B0 04 E7 C8 53 
  1331)     10387.5  Rx         0615  8  22 9C E1 C6 50 B0 E1 DB 
  1332)     10387.8  Rx         0615  8  23 50 B0 E7 CF 50 12 E1 
  1333)     10388.1  Rx         0615  8  24 CB 50 B0 E2 8A B0 09 
  1334)     10388.5  Rx         0615  8  25 E1 DB 50 B0 E7 CC 53 
  1335)     10388.8  Rx         0615  8  26 11 E1 CB 50 B0 E2 4F 
  1336)     10389.1  Rx         0615  8  27 5E 1B E2 8A B0 06 E8 
  1337)     10389.5  Rx         0615  8  28 95 00 60 E1 DB 50 B0 
  1338)     10389.8  Rx         0615  8  29 E7 CF 53 96 E1 CB 50 
  1339)     10390.1  Rx         0615  8  2A B0 E2 8A B0 07 E1 DB 
  1340)     10390.5  Rx         0615  8  2B 50 B0 E7 CE 53 16 E1 
  1341)     10390.8  Rx         0615  8  2C CB 50 B0 E2 8A B0 08 
  1342)     10391.1  Rx         0615  8  2D E1 DB 50 B0 E7 CD 52 
  1343)     10391.5  Rx         0615  8  2E 96 E2 8A 60 0A E1 CB 
  1344)     10391.8  Rx         0615  8  2F 50 B0 E5 D6 50 00 E2 
  1345)     10392.2  Rx         0615  8  20 8A B0 0A E7 C5 52 1C 
  1346)     10392.5  Rx         0615  8  21 E5 C6 50 00 E5 DB 50 
  1347)     10392.8  Rx         0615  8  22 00 E7 C3 51 1C E5 CB 
  1348)     10393.2  Rx         0615  8  23 50 00 E2 8A B0 0A E5 
  1349)     10393.5  Rx         0615  8  24 DB 50 00 E7 C1 50 1C 
  1350)     10393.8  Rx         0615  8  25 E5 CB 50 00 E2 8A B0 
  1351)     10394.2  Rx         0615  8  26 0B E5 DB 50 00 E7 C1 
  1352)     10394.5  Rx         0615  8  27 50 1C E5 CB 50 00 E2 
  1353)     10394.8  Rx         0615  8  28 8A B0 0B E5 DB 50 00 
  1354)     10395.2  Rx         0615  8  29 E7 C3 51 1C E5 CB 50 
  1355)     10395.5  Rx         0615  8  2A 00 E2 8A B0 0B E5 DB 
  1356)     10395.8  Rx         0615  8  2B 50 00 E7 C5 52 1C E5 
  1357)     10396.2  Rx         0615  8  2C CB 50 00 E2 8A B0 0B 
  1358)     10396.5  Rx         0615  8  2D E5 DB 50 00 E7 C7 53 
  1359)     10396.8  Rx         0615  8  2E 1C E5 CB 50 00 E5 1F 
  1360)     10397.2  Rx         0615  8  2F BE AC E2 8B A0 05 E5 
  1361)     10397.5  Rx         0615  8  20 DA 60 00 E2 8B 50 05 
  1362)     10397.8  Rx         0615  8  21 E7 C5 62 1C E5 CA 60 
  1363)     10398.2  Rx         0615  8  22 00 E5 D5 60 00 E7 C7 
  1364)     10398.5  Rx         0615  8  23 63 1C E5 C5 60 00 E2 
  1365)     10398.8  Rx         0615  8  24 8B 50 04 E5 D5 60 00 
  1366)     10399.2  Rx         0615  8  25 E7 C5 62 1C E5 C5 60 
  1367)     10399.5  Rx         0615  8  26 00 E2 8B 50 04 E5 D5 
  1368)     10399.8  Rx         0615  8  27 60 00 E2 8B A0 04 E7 
  1369)     10400.2  Rx         0615  8  28 C3 61 1C E5 C5 60 00 
  1370)     10400.5  Rx         0615  8  29 E5 DA 50 00 E5 9F BF 
  1371)     10400.9  Rx         0615  8  2A EC E7 C7 53 1C E5 CA 
  1372)     10401.2  Rx         0615  8  2B 50 00 E2 8B A0 04 E5 
  1373)     10401.5  Rx         0615  8  2C DA 60 00 E2 8B 50 04 
  1374)     10401.9  Rx         0615  8  2D E7 C7 63 1C E5 CA 60 
  1375)     10402.2  Rx         0615  8  2E 00 E5 D5 60 00 E7 C5 
  1376)     10402.5  Rx         0615  8  2F 62 1C E5 C5 60 00 E2 
  1377)     10402.9  Rx         0615  8  20 8B 50 04 E5 D5 60 00 
  1378)     10403.2  Rx         0615  8  21 E7 C3 61 1C E5 C5 60 
  1379)     10403.5  Rx         0615  8  22 00 E2 8B 50 04 E5 D5 
  1380)     10403.9  Rx         0615  8  23 60 00 E7 C1 60 1C E5 
  1381)     10404.2  Rx         0615  8  24 C5 60 00 E2 8B 50 05 
  1382)     10404.5  Rx         0615  8  25 E5 D5 60 00 E7 C7 63 
  1383)     10404.9  Rx         0615  8  26 1C E5 C5 60 00 E2 8B 
  1384)     10405.2  Rx         0615  8  27 50 05 E5 D5 60 00 E7 
  1385)     10405.5  Rx         0615  8  28 C5 62 1C E5 C5 60 00 
  1386)     10405.9  Rx         0615  8  29 E2 8B 50 05 E5 D5 60 
  1387)     10406.2  Rx         0615  8  2A 00 E7 C3 61 1C E5 C5 
  1388)     10406.5  Rx         0615  8  2B 60 00 E2 8B 50 05 E5 
  1389)     10406.9  Rx         0615  8  2C D5 60 00 E7 C1 60 1C 
  1390)     10407.2  Rx         0615  8  2D E5 C5 60 00 E2 8B 50 
  1391)     10407.6  Rx         0615  8  2E 06 E5 D5 60 00 E7 C7 
  1392)     10407.9  Rx         0615  8  2F 63 1C E5 C5 60 00 E2 
  1393)     10408.2  Rx         0615  8  20 8B 50 06 E5 D5 60 00 
  1394)     10408.6  Rx         0615  8  21 E7 C5 62 1C E5 C5 60 
  1395)     10408.9  Rx         0615  8  22 00 E2 8B 50 06 C5 60 
  1396)     10526.7  Rx         0616  8  02 76 09 55 55 55 55 55 
  1397)     10527.8  Rx         0615  8  14 02 36 0A E5 D5 60 00 
  1398)     10530.2  Rx         0616  8  30 00 00 55 55 55 55 55 
  1399)     10531.2  Rx         0615  8  21 E7 C3 61 1C E5 C5 60 
  1400)     10531.5  Rx         0615  8  22 00 E2 8B 50 06 E5 D5 
  1401)     10531.9  Rx         0615  8  23 60 00 E7 C1 60 1C E5 
  1402)     10532.2  Rx         0615  8  24 C5 60 00 E2 8B 50 07 
  1403)     10532.6  Rx         0615  8  25 E5 D5 60 00 E7 C7 63 
  1404)     10532.9  Rx         0615  8  26 1C E5 C5 60 00 E2 8B 
  1405)     10533.2  Rx         0615  8  27 50 07 E5 D5 60 00 E7 
  1406)     10533.6  Rx         0615  8  28 C5 62 1C E5 C5 60 00 
  1407)     10533.9  Rx         0615  8  29 E2 8B 50 07 E5 D5 60 
  1408)     10534.2  Rx         0615  8  2A 00 E7 C3 61 1C E5 C5 
  1409)     10534.6  Rx         0615  8  2B 60 00 E2 8B 50 07 E5 
  1410)     10534.9  Rx         0615  8  2C D5 60 00 E7 C1 60 1C 
  1411)     10535.2  Rx         0615  8  2D E5 C5 60 00 E2 8B 50 
  1412)     10535.6  Rx         0615  8  2E 08 E5 D5 60 00 E7 C7 
  1413)     10535.9  Rx         0615  8  2F 63 1C E5 C5 60 00 E2 
  1414)     10536.3  Rx         0615  8  20 8B 50 08 E5 D5 60 00 
  1415)     10536.6  Rx         0615  8  21 E7 C5 62 1C E5 C5 60 
  1416)     10536.9  Rx         0615  8  22 00 E2 8B 50 08 E5 D5 
  1417)     10537.3  Rx         0615  8  23 60 00 E7 C3 61 1C E5 
  1418)     10537.6  Rx         0615  8  24 C5 60 00 E2 8B 50 08 
  1419)     10537.9  Rx         0615  8  25 E5 D5 60 00 E7 C1 60 
  1420)     10538.3  Rx         0615  8  26 1C E5 C5 60 00 E2 8B 
  1421)     10538.6  Rx         0615  8  27 50 09 E5 D5 60 00 E7 
  1422)     10538.9  Rx         0615  8  28 C7 63 1C E5 C5 60 00 
  1423)     10539.3  Rx         0615  8  29 E2 8B 50 09 E5 D5 60 
  1424)     10539.6  Rx         0615  8  2A 00 E7 C5 62 1C E5 C5 
  1425)     10539.9  Rx         0615  8  2B 60 00 E2 8B 50 09 E5 
  1426)     10540.3  Rx         0615  8  2C D5 60 00 E7 C3 61 1C 
  1427)     10540.6  Rx         0615  8  2D E5 C5 60 00 E2 8B 50 
  1428)     10540.9  Rx         0615  8  2E 09 E5 D5 60 00 E7 C1 
  1429)     10541.3  Rx         0615  8  2F 60 1C E5 C5 60 00 E2 
  1430)     10541.6  Rx         0615  8  20 8B 50 0A E5 D5 60 00 
  1431)     10542.0  Rx         0615  8  21 E7 C7 63 1C E5 C5 60 
  1432)     10542.3  Rx         0615  8  22 00 E2 8B 50 0A E5 D5 
  1433)     10542.6  Rx         0615  8  23 60 00 E7 C5 62 1C E5 
  1434)     10543.0  Rx         0615  8  24 C5 60 00 E2 8B 50 0A 
  1435)     10543.3  Rx         0615  8  25 E5 D5 60 00 E7 C3 61 
  1436)     10543.6  Rx         0615  8  26 1C E5 C5 60 00 E2 8B 
  1437)     10544.0  Rx         0615  8  27 50 0A E5 D5 60 00 E7 
  1438)     10544.3  Rx         0615  8  28 C1 60 1C E5 C5 60 00 
  1439)     10544.6  Rx         0615  8  29 E2 8B 50 0B E5 D5 60 
  1440)     10545.0  Rx         0615  8  2A 00 E7 C7 63 1C E5 C5 
  1441)     10545.3  Rx         0615  8  2B 60 00 E2 8B 50 0B E5 
  1442)     10545.6  Rx         0615  8  2C D5 60 00 E7 C5 62 1C 
  1443)     10546.0  Rx         0615  8  2D E5 C5 60 00 E2 8B 50 
  1444)     10546.3  Rx         0615  8  2E 0B E5 D5 60 00 E2 8B 
  1445)     10546.6  Rx         0615  8  2F A0 0B E7 C3 61 1C E5 
  1446)     10547.0  Rx         0615  8  20 C5 60 00 E5 DA 50 00 
  1447)     10547.3  Rx         0615  8  21 E5 9F BF A4 E7 C1 50 
  1448)     10547.7  Rx         0615  8  22 1C E5 CA 50 00 E2 8B 
  1449)     10548.0  Rx         0615  8  23 A0 06 E5 DA 60 00 E2 
  1450)     10548.3  Rx         0615  8  24 8B 50 06 E7 C2 60 1E 
  1451)     10548.7  Rx         0615  8  25 E5 CA 60 00 E5 D5 60 
  1452)     10549.0  Rx         0615  8  26 00 E7 C4 62 10 E5 C5 
  1453)     10549.3  Rx         0615  8  27 60 00 E2 8B 50 06 E5 
  1454)     10549.7  Rx         0615  8  28 D5 60 00 E7 C5 62 90 
  1455)     10550.0  Rx         0615  8  29 E5 C5 60 00 E2 8B 50 
  1456)     10550.3  Rx         0615  8  2A 06 E5 D5 60 00 E7 C6 
  1457)     10550.7  Rx         0615  8  2B 63 10 E5 C5 60 00 E2 
  1458)     10551.0  Rx         0615  8  2C 8B 50 05 E5 D5 60 00 
  1459)     10551.3  Rx         0615  8  2D E7 C2 60 1E E5 C5 60 
  1460)     10551.7  Rx         0615  8  2E 00 E2 8B 50 05 E5 D5 
  1461)     10552.0  Rx         0615  8  2F 60 00 E7 C5 61 9E E5 
  1462)     10552.3  Rx         0615  8  20 C5 60 00 E2 8B 50 05 
  1463)     10552.7  Rx         0615  8  21 E5 D5 60 00 E7 C6 63 
  1464)     10553.0  Rx         0615  8  22 10 E5 C5 60 00 E2 8B 
  1465)     10553.3  Rx         0615  8  23 50 05 E5 D5 60 00 E7 
  1466)     10553.7  Rx         0615  8  24 C7 63 90 E5 C5 60 00 
  1467)     10554.0  Rx         0615  8  25 E2 8B 50 04 E5 D5 60 
  1468)     10554.3  Rx         0615  8  26 00 E7 C3 60 9E E5 C5 
  1469)     10554.7  Rx         0615  8  27 60 00 E2 8B 50 04 E5 
  1470)     10555.0  Rx         0615  8  28 D5 60 00 E7 C6 62 1E 
  1471)     10555.3  Rx         0615  8  29 E5 C5 60 00 E2 8B 50 
  1472)     10555.7  Rx         0615  8  2A 04 E5 D5 60 00 E7 C7 
  1473)     10556.0  Rx         0615  8  2B 63 90 E5 C5 60 00 E2 
  1474)     10556.3  Rx         0615  8  2C 8B 50 07 E5 D5 60 00 
  1475)     10556.7  Rx         0615  8  2D E7 C1 60 1C E5 C5 60 
  1476)     10557.0  Rx         0615  8  2E 00 E2 8B 50 07 E5 D5 
  1477)     10557.3  Rx         0615  8  2F 60 00 E7 C3 61 1C E5 
  1478)     10557.7  Rx         0615  8  20 C5 60 00 E2 8B 50 07 
  1479)     10558.0  Rx         0615  8  21 E5 D5 60 00 E2 8B A0 
  1480)     10558.4  Rx         0615  8  22 07 E7 C5 62 1C E5 C5 
  1481)     10558.7  Rx         0615  8  23 60 00 E5 DA 50 00 E5 
  1482)     10559.0  Rx         0615  8  24 9F BF EC E7 C7 53 1C 
  1483)     10559.4  Rx         0615  8  25 E5 CA 50 00 E2 8B A0 
  1484)     10559.7  Rx         0615  8  26 05 E5 DA 60 00 E2 8B 
  1485)     10560.0  Rx         0615  8  27 50 04 E7 C3 60 18 E5 
  1486)     10560.4  Rx         0615  8  28 CA 60 00 E5 D5 60 00 
  1487)     10560.7  Rx         0615  8  29 E7 C3 61 1C E5 C5 60 
  1488)     10561.0  Rx         0615  8  2A 00 E2 8B 50 04 E5 D5 
  1489)     10561.4  Rx         0615  8  2B 60 00 E7 C1 60 1C E5 
  1490)     10561.7  Rx         0615  8  2C C5 60 00 E2 8B 50 04 
  1491)     10562.0  Rx         0615  8  2D E5 D5 60 00 E2 8B A0 
  1492)     10562.4  Rx         0615  8  2E 04 E7 C5 62 1C E5 C5 
  1493)     10562.7  Rx         0615  8  2F 60 00 E5 DA 50 00 E5 
  1494)     10563.0  Rx         0615  8  20 9F 6F F8 E7 C7 53 1C 
  1495)     10563.4  Rx         0615  8  21 E5 CA 50 00 E5 C6 70 
  1496)     10563.7  Rx         0615  8  22 09 E5 C6 70 08 E5 C6 
  1497)     10564.1  Rx         0615  8  23 70 07 E5 C6 70 06 E5 
  1498)     10564.4  Rx         0615  8  24 C6 70 05 E5 C6 70 04 
  1499)     10564.7  Rx         0615  8  25 E5 9F 5F A8 E2 85 A0 
  1500)     10565.1  Rx         0615  8  26 0A E1 DA 60 B0 E2 85 
  1501)     10565.4  Rx         0615  8  27 B0 09 E7 C9 60 14 E1 
